! S11 = SDD11
! S12 = SDD12
! S13 = SDC11
! S14 = SDC12
! S21 = SDD21
! S22 = SDD22
! S23 = SDC21
! S24 = SDC22
! S31 = SCD11
! S32 = SCD12
! S33 = SCC11
! S34 = SCC12
! S41 = SCD21
! S42 = SCD22
! S43 = SCC21
! S44 = SCC22
!
! FILE: L:\Projects\Eval Projects\Cetus A1\Receiver\LSI Compliance Channels\20 cm\20cm sparam.s4p
!$DUT_CFG_DESC: Default 4 Port Configuration
!$NUMBER_PORTS: 4
!$DIFF_PORT_MAP: 1|2P|2|2P|0|UC|0|UC|
!$PORT_MAP: 1|1|<<<<<<|2|2|>>>>>>|3|3|<<<<<<|4|4|>>>>>>|
!
# MHz S MA R 50.00
!
! FREQ                  		S11                         			   S12                         			   S13                         			   S14
!                       		S21                         			   S22                         			   S23                         			   S24
!                       		S31                         			   S32                         			   S33                         			   S34
!                       		S41                         			   S42                         			   S43                         			   S44
!                       		
!                  	MAG     		    ANGLE              	      MAG     		    ANGLE              	      MAG     		    ANGLE              	      MAG     		    ANGLE              	      
10.00000000      0.0121232930190707     -28.3266477495619        0.99717903408086     -3.15813194769686     0.00342946275910618     -87.9306558442232     0.00572637470460333      168.698967088163    
                  0.979963251836083     -4.66681289619308      0.0291197588266206      13.2545707358737     0.00453334426955835      141.375102186209     0.00177154351107322     -176.164041891872    
                0.00262939899532918     -113.049611976668     0.00697738000481253     -177.093645469084      0.0121672927873909     -17.5766146921989       0.997331251891078     -3.15114847499924    
                 0.0049940941654326      125.896386379677     0.00230910944553882      162.912491107228       0.978606312513013     -4.69511938044942      0.0296972951328551      16.5903766185537    
               
20.00000000      0.0180112564778554     -37.1727040916653       0.977344849118561     -10.8450522158752     0.00127136717758039       167.04041161978     0.00215059785094278      138.039781310241    
                  0.976374855309359     -11.3790288459034      0.0251813834840464     -39.3726673869714     0.00337959400971762      129.067968578234    0.000379333146457218      173.551606772801    
                0.00123374145665642      153.266467566358     0.00212012294701427      139.720550011798      0.0167764193141529     -13.2163830081246       0.977186771688471     -10.8164030786528    
                0.00335129515979494      132.914916549262    0.000740742500809365      163.893901642574       0.976035786865337     -11.3540835699969      0.0226997993143163     -24.6814639423421    
               
30.00000000      0.0214809332656178     -56.8418334620695       0.976177466299773     -16.6456963185006    0.000650793772844257       103.82343316458     0.00126421271175018      136.731809335481    
                  0.978429055885969     -16.9812227738533      0.0242733105976669     -65.0881208781411     0.00174471387190474      115.172732990201    0.000352350021968419      46.3493539199145    
                0.00074717485080672      99.5001017951044     0.00106205911619138      143.713609219452      0.0170022830597945     -27.4229579262358       0.976182915322452     -16.5971089881305    
                0.00165582765686269       125.83276137902    0.000584402990020685      58.6267044764759       0.978204751268107     -16.9201684062379      0.0180138864564319     -41.5922212708823    
               
40.00000000      0.0243269840885541     -71.3920959626031       0.976917277694606     -22.5355515265949    0.000275559057384608      2.66917243981316    0.000516135168152395      139.956052272915    
                  0.979351683153219     -22.9039131274669      0.0238875421339213     -78.1698921065685     0.00153022445383269      94.0599563706353    0.000532980983206774     -42.4696115013038    
               0.000223278494026418      1.51875767143759    0.000277655719274046      133.019512476596      0.0169143289333055     -37.5023945483578       0.977270959725599     -22.4806762139005    
                0.00150420863763616      97.0919217775176    0.000370366594029642      -27.295270726465       0.979230092878118     -22.8594395692744       0.014823868027927     -45.2549410391925    
               
50.00000000      0.0266879618101238     -82.2775826793746       0.974402630930408     -28.4835197176126    0.000724388207313331      75.4530310209306     0.00125540909504759     -125.495785922983    
                  0.975117441461914     -28.7617241123071      0.0268168080807995     -84.3573576116752    0.000647603995409805      -117.17937654719    0.000807651180045091     -101.951228232795    
               0.000107650495374429      151.753469385253     0.00145395594432397     -128.823345033206      0.0167575535844778     -44.5317123967634       0.974241972817038     -28.3949692752986    
                0.00104228110369999     -132.037968325929    0.000546759219932464     -87.8143546429817       0.975007523353682     -28.6734222761333      0.0158019175736979     -46.4857261746503    
               
60.00000000      0.0306884522489426     -90.6751040484184       0.972359087076448      -34.065391310105    0.000555876338614923     -18.6740716972183    0.000334743491181576      92.6774685439434    
                   0.97326192705527     -34.3201514162047      0.0307241648378964     -88.1993061973131    0.000754003872101036      92.9984819074487     0.00115283875002982     -92.1683025091454    
               0.000531995419594028     -52.5610235175123    0.000674093484395867      119.444838723604      0.0180915431353414     -52.0650851593493       0.972770426881752     -33.9991517582978    
               0.000666823284643682      97.3921928222321     0.00120635132106802     -97.8401521294609       0.973810492660441     -34.2464592037421      0.0186634193397037      -49.357750311876    
               
70.00000000      0.0346407909310797     -99.7775234989409       0.970906747841767     -39.7732154189636    0.000493568137300989     -60.8887449160416    0.000919746179967612      117.520119913718    
                  0.972312089181465     -40.0290575968093      0.0366845664608564     -97.4300405589085    0.000908773532971878      85.1863971102078     0.00113551371683679     -112.663848244793    
               0.000469290744232031     -114.299521069703     0.00098068417019472      121.383820966711      0.0184982650524131     -61.8783129825596       0.971318374514303     -39.6696108845693    
                0.00124310751269682      72.9650908116086     0.00105844950799311      -103.50084973942       0.972859128907341     -39.9163801022439      0.0207629521276375     -61.0785674225624    
               
80.00000000      0.0385051626550094     -109.493707901309        0.96977576248423     -45.4887795144362     0.00046863993311275      172.785872128245     0.00078637429019074      68.8920723752675    
                  0.969809333106109     -45.7094067454198       0.041770077798554     -107.042598643406    0.000933214333961886      88.6432535109533     0.00131763064292683     -106.542698802432    
               0.000846319312622243     -155.411874752206    0.000788915070667309      75.5768490539356      0.0189754076649772     -72.8133248848704       0.970178559039059     -45.3622899145644    
               0.000831087707826437      85.3085478433785     0.00112303359258593     -96.5581890972018       0.970215261906445     -45.5711247014435      0.0223455530197476     -73.7971143656506    
               
90.00000000      0.0418588217839124     -117.183224137795       0.967641244766495     -51.1559012804447    0.000554214511531819      159.083704387401    0.000842006944393849      68.1457624075468    
                  0.967585053436138     -51.3047424696048      0.0451723920719077     -116.755237356562    0.000915973775757088      70.8016545984415     0.00130193138899469     -128.009570762214    
               0.000848381949333542       174.97471705129    0.000636855269827468      74.0901512191288       0.019367579757908     -81.8082192468889       0.968735365935725     -51.0127806114132    
               0.000875050780891411      69.1656535468338     0.00113775051877917     -117.588264207729       0.968202322991358     -51.1846371983891       0.022415334658691     -84.5313150165191    
               
100.00000000      0.0439711183162549     -124.951005904431       0.966730525993007     -56.8235678059469    0.000374530522417078      97.4091493303189     0.00111541336686385      49.6571805533804    
                  0.966498118779702     -56.9544182933458       0.047332051234317     -124.829588904352     0.00151377812321217      63.3509063042558     0.00162920027724078     -120.374147431979    
               0.000388037823475263      152.526365218404     0.00109555990366649      59.9239766090645       0.018652563143931     -89.8060448527482       0.967849407897359     -56.7102912108176    
                0.00159761756952211      63.2063567511592     0.00167219033272523     -120.544278790998       0.967720597486566     -56.8380143934011      0.0217102812227502      -93.374006222895    
               
110.00000000      0.0466475751132311     -131.664425506468       0.965538236598966     -62.4656870076975    0.000371972873788163   -0.0402179219419629     0.00106207594982394      71.8169561708486    
                  0.964844201514607     -62.6228630621379       0.049525746058546     -130.824591099673     0.00152047563285197      45.3679689306793     0.00165502596092535     -124.897847868778    
               0.000174563342606341     -91.7558115846783     0.00102727777711794      68.9066617604895      0.0186377637687508     -96.6174502645034       0.966447354734885     -62.3521954882283    
                0.00151255079272309      46.3134661370425     0.00184028180045201     -127.329395566347        0.96602638491132     -62.5119747434923      0.0218986609958641     -97.7658211225563    
               
120.00000000      0.0487905092731595     -138.305135555153       0.963358628211524     -68.1252175968015     0.00067858021768136     -35.9977518636349     0.00124495551908514      38.3736301557976    
                   0.96326353146855     -68.2480093761053      0.0517028887842198     -136.382487019504     0.00151952384422534      42.0396784354523     0.00149062646586264     -146.236336230434    
               0.000549367038409337     -75.7476220006299     0.00117490468521459      39.5484988862727      0.0190298026330583     -103.110848169808        0.96448565041678      -67.991024428928    
                  0.001611363638616      37.9317964230663     0.00149809985454701     -150.568539023897       0.964360978071839     -68.1061430741152      0.0224422141909706     -102.540314877793    
               
130.00000000       0.051099203621516     -144.548559143994       0.961784548479748     -73.7919804354368    0.000959848716425977     -27.8354509154126     0.00191617689084195      27.8245375355065    
                  0.961926404702389     -73.9219785727628      0.0548323448702248     -142.234390475217     0.00200402844473835      29.2267949989351     0.00181432696916921     -133.345579204932    
               0.000648024908937141     -52.6179328935115     0.00163566138999871      33.6392709038586      0.0194513038776701     -109.950448143751       0.962899686181068      -73.647399710117    
                0.00211001006207964      25.4891171483786     0.00184885067855336     -134.321433409062       0.963033348726031      -73.778082254366      0.0234932503584546     -109.807292387492    
               
140.00000000      0.0529910799829592     -150.928206716168       0.960653206792813     -79.3976200748602    0.000515412084680127     -61.4881925539115     0.00204294506568849      27.3421287227064    
                  0.960282093595387     -79.5036814414404      0.0571670829989867     -148.626591327992     0.00119876971349886      27.8086349138814     0.00175593243449273     -133.518085567039    
               0.000467468752277219     -85.8345837340472     0.00223006008302087      30.1915865097891      0.0193786075251211      -117.03174402799       0.962016075674533     -79.2515166150252    
                0.00118737929083225      33.2907941524135      0.0017016262612352     -141.598498346087       0.961466660584199     -79.3371813339349      0.0244687795919066     -117.199425073002    
               
150.00000000      0.0542864604141991     -157.692985780883       0.959100409290479     -85.0648690359021     0.00108366650673563     -32.6101601041864     0.00142554704425467       32.467943689712    
                  0.958095970613651     -85.0833681326611      0.0589391053426108     -155.852444449103     0.00133642442235804      38.1714280647973     0.00167265236059951     -130.770541424828    
               0.000832454425544716      -44.024798065232     0.00128110791963582      34.7039824460739      0.0191081084139864     -124.619044846538       0.960982455346592     -84.9099434056225    
                0.00129213630349048      37.5548806636683     0.00188599492213051     -134.128595695555        0.95997617730395     -84.9204923388106      0.0239066265413114     -126.418169749118    
               
160.00000000      0.0550038307963669     -163.923276928561       0.957204978185665     -90.6312325261345     0.00122074659342569     -31.6056205623413    0.000978633703670314      26.1893811702892    
                  0.956695246575287     -90.7102101280434      0.0587002841525968      -162.23024695065       0.001736369569793      22.7145308508188     0.00227334524440586     -134.830063904056    
               0.000933513964405305     -35.4425878837123     0.00107174152514392      19.6252706982808      0.0186732546714399     -131.917519932708       0.959073180235795     -90.4905895546783    
                0.00157542389216571      25.6856191036187     0.00217708826015503     -131.392776996496       0.959039907953591     -90.5675814043769      0.0226528925396387     -132.107780089455    
               
170.00000000      0.0552100360105998     -170.002960194391       0.955671042185519     -96.2109980222428     0.00126569310994229     -30.6783204606455    0.000968571712020455      3.05740074347537    
                  0.956033055875026     -96.2782821377507      0.0584673765941577     -168.305679815927     0.00190287493790245      4.59270289452324     0.00189517323448213     -139.675194676924    
                0.00109551064483515      -37.320101558479    0.000856566589254805      9.66121207602444      0.0178821470235514      -137.65366975624       0.957716189558306     -96.0804445092327    
                0.00198813266141979      8.18348057857511     0.00184952859064001      -146.20813159731       0.957938067183136     -96.1545048695898      0.0216587798285436     -137.753596660087    
               
180.00000000      0.0553387141427966     -175.553177773753       0.954722470428764      -101.84865460483     0.00151412085522235     -30.6734453211912     0.00217382026551418      2.25444385809655    
                  0.954308635181668     -101.907880508636      0.0579653998471567     -173.389123901856      0.0020966963033705     -2.63080219882476     0.00214834776037572     -148.696860446523    
                0.00105563908889058     -31.6495644468638     0.00212327565195443      3.41364322225907      0.0175767393476965     -143.312074911581        0.95650364460759     -101.727300400766    
                0.00220294085091283    -0.922661306205969     0.00230415629006412     -147.059085060672       0.956222133566149     -101.778644680672      0.0213344650730879     -140.985053301044    
               
190.00000000      0.0549119083071963      178.562620543582       0.952488906653911     -107.423155007353     0.00170563823975011     -41.4071588882509     0.00229696960017262     -14.1576180873252    
                   0.95312223778623     -107.521418965433      0.0579283166263852     -179.000102194317     0.00217348422710987     -3.88533830622802     0.00202317345498673     -142.597974759491    
                0.00136981243071305     -42.7485288454441     0.00222788055370838     -12.3479935408425      0.0169766340198922     -149.064029397832       0.954331137696628     -107.303821371894    
                0.00210079965285394     -2.65680269945147     0.00193456509114714     -141.213182079411       0.954891274337859     -107.393727848886      0.0205916713967603     -146.902864980936    
               
200.00000000      0.0536821217059002       173.04192669732        0.95154429396912     -113.034100766561     0.00170910458576879     -39.0427078128126     0.00191812780381393     -24.6583376447831    
                  0.951454278174576     -113.102459730582      0.0572488882570216      175.170253009214     0.00153165003190067     -28.1271062887123     0.00221790195671395     -130.871046123127    
                0.00162938997735763     -47.4253601459473      0.0019723265938183     -26.7241311567916      0.0156491181479218     -152.507251505418       0.953540656611936     -112.890816993717    
                0.00152080343300801     -30.6165695571763     0.00209163109232813     -134.270570329579       0.953449022539552     -112.964185258776      0.0196898017608421      -152.81847485422    
               
210.00000000      0.0525215988043022      167.501667327408       0.949901854742321     -118.659272930918      0.0021047887151859     -43.3360091040749     0.00143720713824997     -25.3395819208216    
                  0.950064418363334     -118.695406335386      0.0557051038834922       168.33411513748     0.00130922316564076     -12.2556723013663     0.00223929688835841     -132.525226594644    
                0.00170427355508809     -43.6496884658781     0.00158145074195769      -22.622808625279      0.0147389038613901     -157.079926585193       0.952162200026993     -118.527414717653    
                0.00154733422350398     -21.0530517597864     0.00242854858713023     -134.700032350135       0.952244246645042     -118.567006224975      0.0180054123891168     -160.556021421174    
               
220.00000000       0.050861724904209      162.209055942156       0.948696341547579     -124.218836147748     0.00219544118012375     -42.6138425708137     0.00162344123931182     -22.7939708827019    
                  0.948571834366856     -124.263801778954      0.0530925817763802       162.34601484332     0.00183247780601673     -31.7858498968642     0.00254211503797379     -130.513775034713    
                0.00187621578507092     -44.7726448431652     0.00160705888455604     -28.1837395448759      0.0137281370219284     -161.716991693629       0.951098865862077     -124.101671372005    
                0.00157011210015936     -32.3816268356459     0.00256416053853404     -129.607289012247       0.950844248158639     -124.140402060746      0.0158250487753897     -164.183573791082    
               
230.00000000      0.0481388947618158      156.589266062951       0.947632790531853     -129.781366359892     0.00196690577284087     -47.6619106617715     0.00175421445249624     -32.0381195250814    
                  0.947504135929836     -129.832937180012      0.0499469341861603      156.600952056243     0.00198646489109972     -39.3838269077018     0.00245219726036669     -131.836643736154    
                0.00193445314499098     -49.4874733496285     0.00177517616961643     -28.9167276553351      0.0117313704137317     -162.930630676861       0.949632738736041     -129.680214803959    
