! 4-port sparameter: port 1 to 2, port 3 to 4, with {1,3} in tx side and {2,4} in rx side
!
# Hz S RI R 50.0000
!
! FREQ                        S11                             S12                             S13                             S14
!                             S21                             S22                             S23                             S24
!                             S31                             S32                             S33                             S34
!                             S41                             S42                             S43                             S44
1.00000e+007 	+3.50746e-002 	 +1.19419e-002 	 +9.41158e-001 	 -1.72146e-001 	 +5.86894e-003 	 +2.45778e-002 	 -2.05980e-003 	 -2.13277e-003 	 
		+9.41157e-001 	 -1.72146e-001 	 +3.51246e-002 	 +1.17808e-002 	 -2.05403e-003 	 -2.16380e-003 	 +5.90607e-003 	 +2.42059e-002 	 
		+5.86927e-003 	 +2.45778e-002 	 -2.05415e-003 	 -2.16377e-003 	 +3.62579e-002 	 +1.25955e-002 	 +9.42668e-001 	 -1.72687e-001 	 
		-2.05950e-003 	 -2.13283e-003 	 +5.90564e-003 	 +2.42060e-002 	 +9.42669e-001 	 -1.72687e-001 	 +3.62582e-002 	 +1.21681e-002 	 

2.00000e+007 	+4.32788e-002 	 +2.06845e-002 	 +8.90383e-001 	 -3.30989e-001 	 +1.90544e-002 	 +4.42476e-002 	 -4.39511e-003 	 -3.40152e-003 	 
		+8.90383e-001 	 -3.30988e-001 	 +4.39093e-002 	 +2.16436e-002 	 -4.38198e-003 	 -3.47519e-003 	 +1.87373e-002 	 +4.40044e-002 	 
		+1.90547e-002 	 +4.42475e-002 	 -4.38209e-003 	 -3.47515e-003 	 +4.41983e-002 	 +2.22767e-002 	 +8.91966e-001 	 -3.32196e-001 	 
		-4.39482e-003 	 -3.40163e-003 	 +1.87369e-002 	 +4.40045e-002 	 +8.91967e-001 	 -3.32196e-001 	 +4.52766e-002 	 +2.23690e-002 	 

3.00000e+007 	+5.60325e-002 	 +2.46540e-002 	 +8.11820e-001 	 -4.74828e-001 	 +3.73363e-002 	 +5.79411e-002 	 -6.95150e-003 	 -3.08417e-003 	 
		+8.11820e-001 	 -4.74827e-001 	 +5.83636e-002 	 +2.51351e-002 	 -6.95612e-003 	 -3.22946e-003 	 +3.67258e-002 	 +5.79572e-002 	 
		+3.73365e-002 	 +5.79409e-002 	 -6.95623e-003 	 -3.22940e-003 	 +5.72332e-002 	 +2.70937e-002 	 +8.12948e-001 	 -4.76486e-001 	 
		-6.95124e-003 	 -3.08432e-003 	 +3.67255e-002 	 +5.79574e-002 	 +8.12949e-001 	 -4.76486e-001 	 +6.04955e-002 	 +2.57097e-002 	 

4.00000e+007 	+6.84096e-002 	 +2.45022e-002 	 +7.11879e-001 	 -6.01130e-001 	 +5.85938e-002 	 +6.45122e-002 	 -9.02260e-003 	 -1.43592e-003 	 
		+7.11879e-001 	 -6.01130e-001 	 +7.29535e-002 	 +2.29916e-002 	 -9.09348e-003 	 -1.66274e-003 	 +5.76716e-002 	 +6.49354e-002 	 
		+5.85940e-002 	 +6.45120e-002 	 -9.09357e-003 	 -1.66267e-003 	 +7.00472e-002 	 +2.77118e-002 	 +7.12423e-001 	 -6.03038e-001 	 
		-9.02237e-003 	 -1.43612e-003 	 +5.76712e-002 	 +6.49356e-002 	 +7.12424e-001 	 -6.03038e-001 	 +7.58800e-002 	 +2.29349e-002 	 

5.00000e+007 	+7.89972e-002 	 +2.03982e-002 	 +5.94486e-001 	 -7.06985e-001 	 +8.02469e-002 	 +6.35930e-002 	 -1.00366e-002 	 +1.03315e-003 	 
		+5.94486e-001 	 -7.06984e-001 	 +8.54786e-002 	 +1.54689e-002 	 -1.02305e-002 	 +7.46291e-004 	 +7.90530e-002 	 +6.46148e-002 	 
		+8.02470e-002 	 +6.35927e-002 	 -1.02306e-002 	 +7.46381e-004 	 +8.11268e-002 	 +2.43172e-002 	 +5.94443e-001 	 -7.08987e-001 	 
		-1.00364e-002 	 +1.03293e-003 	 +7.90527e-002 	 +6.46150e-002 	 +5.94444e-001 	 -7.08988e-001 	 +8.89729e-002 	 +1.43881e-002 	 

6.00000e+007 	+8.59704e-002 	 +1.22864e-002 	 +4.64744e-001 	 -7.89933e-001 	 +9.97504e-002 	 +5.58487e-002 	 -9.73413e-003 	 +3.49986e-003 	 
		+4.64744e-001 	 -7.89933e-001 	 +9.30967e-002 	 +3.49167e-003 	 -1.00963e-002 	 +3.20976e-003 	 +9.84393e-002 	 +5.76276e-002 	 
		+9.97505e-002 	 +5.58484e-002 	 -1.00964e-002 	 +3.20986e-003 	 +8.86345e-002 	 +1.68287e-002 	 +4.64154e-001 	 -7.91902e-001 	 
		-9.73398e-003 	 +3.49960e-003 	 +9.84391e-002 	 +5.76278e-002 	 +4.64154e-001 	 -7.91902e-001 	 +9.67671e-002 	 +1.12228e-003 	 

7.00000e+007 	+8.91688e-002 	 +2.17102e-003 	 +3.25829e-001 	 -8.49776e-001 	 +1.15235e-001 	 +4.24592e-002 	 -8.46150e-003 	 +5.36647e-003 	 
		+3.25829e-001 	 -8.49776e-001 	 +9.56851e-002 	 -1.06463e-002 	 -9.00979e-003 	 +5.15428e-003 	 +1.14019e-001 	 +4.51139e-002 	 
		+1.15235e-001 	 +4.24590e-002 	 -9.00983e-003 	 +5.15439e-003 	 +9.24105e-002 	 +7.26887e-003 	 +3.24740e-001 	 -8.51608e-001 	 
		-8.46139e-003 	 +5.36619e-003 	 +1.14019e-001 	 +4.51142e-002 	 +3.24740e-001 	 -8.51609e-001 	 +9.90694e-002 	 -1.44183e-002 	 

8.00000e+007 	+8.87703e-002 	 -8.36302e-003 	 +1.80799e-001 	 -8.86229e-001 	 +1.25256e-001 	 +2.50160e-002 	 -6.72031e-003 	 +6.32040e-003 	 
		+1.80799e-001 	 -8.86229e-001 	 +9.34981e-002 	 -2.52357e-002 	 -7.43450e-003 	 +6.27752e-003 	 +1.24389e-001 	 +2.86158e-002 	 
		+1.25256e-001 	 +2.50158e-002 	 -7.43452e-003 	 +6.27762e-003 	 +9.26369e-002 	 -2.76325e-003 	 +1.79253e-001 	 -8.87840e-001 	 
		-6.72025e-003 	 +6.32011e-003 	 +1.24389e-001 	 +2.86160e-002 	 +1.79254e-001 	 -8.87841e-001 	 +9.61096e-002 	 -3.03703e-002 	 

9.00000e+007 	+8.49110e-002 	 -1.82168e-002 	 +3.31104e-002 	 -8.99024e-001 	 +1.28892e-001 	 +5.49771e-003 	 -5.06792e-003 	 +6.28265e-003 	 
		+3.31104e-002 	 -8.99024e-001 	 +8.66743e-002 	 -3.87972e-002 	 -5.88496e-003 	 +6.49247e-003 	 +1.28656e-001 	 +1.00382e-002 	 
		+1.28892e-001 	 +5.49753e-003 	 -5.88497e-003 	 +6.49258e-003 	 +8.94520e-002 	 -1.21666e-002 	 +3.11438e-002 	 -9.00333e-001 	 
		-5.06791e-003 	 +6.28236e-003 	 +1.28656e-001 	 +1.00384e-002 	 +3.11438e-002 	 -9.00334e-001 	 +8.80433e-002 	 -4.50913e-002 	 

1.00000e+008 	+7.79856e-002 	 -2.63878e-002 	 -1.13814e-001 	 -8.88228e-001 	 +1.25871e-001 	 -1.39514e-002 	 -4.03039e-003 	 +5.46060e-003 	 
		-1.13814e-001 	 -8.88227e-001 	 +7.57301e-002 	 -4.99607e-002 	 -4.84889e-003 	 +5.97860e-003 	 +1.26556e-001 	 -8.55364e-003 	 
		+1.25871e-001 	 -1.39515e-002 	 -4.84888e-003 	 +5.97871e-003 	 +8.32517e-002 	 -1.99411e-002 	 -1.16162e-001 	 -8.89146e-001 	 
		-4.03043e-003 	 +5.46031e-003 	 +1.26555e-001 	 -8.55344e-003 	 -1.16162e-001 	 -8.89147e-001 	 +7.54516e-002 	 -5.70526e-002 	 

1.10000e+008 	+6.86407e-002 	 -3.20113e-002 	 -2.56555e-001 	 -8.54248e-001 	 +1.16592e-001 	 -3.12113e-002 	 -3.97192e-003 	 +4.30537e-003 	 
		-2.56555e-001 	 -8.54247e-001 	 +6.15418e-002 	 -5.75489e-002 	 -4.66597e-003 	 +5.14205e-003 	 +1.18470e-001 	 -2.51153e-002 	 
		+1.16592e-001 	 -3.12114e-002 	 -4.66594e-003 	 +5.14216e-003 	 +7.46847e-002 	 -2.52255e-002 	 -2.59227e-001 	 -8.54676e-001 	 
		-3.97201e-003 	 +4.30509e-003 	 +1.18470e-001 	 -2.51151e-002 	 -2.59227e-001 	 -8.54677e-001 	 +5.93268e-002 	 -6.49373e-002 	 

1.20000e+008 	+5.77570e-002 	 -3.44208e-002 	 -3.91671e-001 	 -7.97881e-001 	 +1.02101e-001 	 -4.43837e-002 	 -4.99263e-003 	 +3.41373e-003 	 
		-3.91670e-001 	 -7.97881e-001 	 +4.53065e-002 	 -6.06660e-002 	 -5.43322e-003 	 +4.52486e-003 	 +1.05411e-001 	 -3.78156e-002 	 
		+1.02100e-001 	 -4.43837e-002 	 -5.43318e-003 	 +4.52496e-003 	 +6.46358e-002 	 -2.73575e-002 	 -3.94576e-001 	 -7.97717e-001 	 
		-4.99276e-003 	 +3.41347e-003 	 +1.05411e-001 	 -3.78154e-002 	 -3.94577e-001 	 -7.97717e-001 	 +4.10298e-002 	 -6.77470e-002 	 

1.30000e+008 	+4.64104e-002 	 -3.32286e-002 	 -5.15709e-001 	 -7.20394e-001 	 +8.40043e-002 	 -5.19871e-002 	 -6.87807e-003 	 +3.38888e-003 	 
		-5.15708e-001 	 -7.20394e-001 	 +2.84661e-002 	 -5.87969e-002 	 -6.95816e-003 	 +4.67578e-003 	 +8.89433e-002 	 -4.52311e-002 	 
		+8.40042e-002 	 -5.19871e-002 	 -6.95810e-003 	 +4.67587e-003 	 +5.41848e-002 	 -2.59510e-002 	 -5.18716e-001 	 -7.19551e-001 	 
		-6.87824e-003 	 +3.38865e-003 	 +8.89432e-002 	 -4.52309e-002 	 -5.18717e-001 	 -7.19552e-001 	 +2.22092e-002 	 -6.49132e-002 	 

1.40000e+008 	+3.57574e-002 	 -2.84220e-002 	 -6.25227e-001 	 -6.23622e-001 	 +6.43242e-002 	 -5.31347e-002 	 -9.11184e-003 	 +4.68211e-003 	 
		-6.25227e-001 	 -6.23621e-001 	 +1.25618e-002 	 -5.18657e-002 	 -8.77278e-003 	 +6.00515e-003 	 +7.10326e-002 	 -4.65161e-002 	 
		+6.43241e-002 	 -5.31347e-002 	 -8.77271e-003 	 +6.00523e-003 	 +4.45295e-002 	 -2.09732e-002 	 -6.28212e-001 	 -6.22058e-001 	 
		-9.11204e-003 	 +4.68191e-003 	 +7.10324e-002 	 -4.65159e-002 	 -6.28213e-001 	 -6.22059e-001 	 +4.67559e-003 	 -5.63983e-002 	 

1.50000e+008 	+2.69268e-002 	 -2.01489e-002 	 -7.17082e-001 	 -5.10269e-001 	 +4.52885e-002 	 -4.76317e-002 	 -1.10126e-002 	 +7.42920e-003 	 
		-7.17082e-001 	 -5.10269e-001 	 -6.70334e-004 	 -4.01865e-002 	 -1.02458e-002 	 +8.63962e-003 	 +5.38847e-002 	 -4.15303e-002 	 
		+4.52885e-002 	 -4.76316e-002 	 -1.02457e-002 	 +8.63969e-003 	 +3.68695e-002 	 -1.27979e-002 	 -7.19843e-001 	 -5.07794e-001 	 
		-1.10128e-002 	 +7.42904e-003 	 +5.38846e-002 	 -4.15301e-002 	 -7.19844e-001 	 -5.07794e-001 	 -9.76526e-003 	 -4.27655e-002 	 

1.60000e+008 	+2.12876e-002 	 -9.30921e-003 	 -7.88651e-001 	 -3.83236e-001 	 +2.91040e-002 	 -3.60990e-002 	 -1.18493e-002 	 +1.15001e-002 	 
		-7.88650e-001 	 -3.83236e-001 	 -9.82950e-003 	 -2.50651e-002 	 -1.07111e-002 	 +1.24324e-002 	 +3.95797e-002 	 -3.09698e-002 	 
		+2.91040e-002 	 -3.60990e-002 	 -1.07110e-002 	 +1.24324e-002 	 +3.22598e-002 	 -2.22972e-003 	 -7.90795e-001 	 -3.79994e-001 	 
		-1.18495e-002 	 +1.14999e-002 	 +3.95796e-002 	 -3.09696e-002 	 -7.90796e-001 	 -3.79995e-001 	 -1.95531e-002 	 -2.51812e-002 	 

1.70000e+008 	+1.94257e-002 	 +2.82720e-003 	 -8.37495e-001 	 -2.46365e-001 	 +1.76123e-002 	 -1.98595e-002 	 -1.09707e-002 	 +1.63411e-002 	 
		-8.37494e-001 	 -2.46365e-001 	 -1.40072e-002 	 -7.83062e-003 	 -9.58961e-003 	 +1.68695e-002 	 +2.98593e-002 	 -1.61453e-002 	 
		+1.76123e-002 	 -1.98595e-002 	 -9.58950e-003 	 +1.68696e-002 	 +3.14457e-002 	 +9.52563e-003 	 -8.38846e-001 	 -2.42554e-001 	 
		-1.09710e-002 	 +1.63411e-002 	 +2.98592e-002 	 -1.61450e-002 	 -8.38846e-001 	 -2.42554e-001 	 -2.35240e-002 	 -5.30610e-003 	 

1.80000e+008 	+2.14193e-002 	 +1.49810e-002 	 -8.62382e-001 	 -1.04073e-001 	 +1.20067e-002 	 -8.63363e-004 	 -8.09269e-003 	 +2.10568e-002 	 
		-8.62381e-001 	 -1.04072e-001 	 -1.28490e-002 	 +9.63546e-003 	 -6.65094e-003 	 +2.11399e-002 	 +2.58739e-002 	 +1.00604e-003 	 
		+1.20067e-002 	 -8.63348e-004 	 -6.65083e-003 	 +2.11399e-002 	 +3.44767e-002 	 +2.10364e-002 	 -8.62821e-001 	 -9.99493e-002 	 
		-8.09296e-003 	 +2.10567e-002 	 +2.58738e-002 	 +1.00629e-003 	 -8.62822e-001 	 -9.99494e-002 	 -2.12302e-002 	 +1.46491e-002 	 

1.90000e+008 	+2.73900e-002 	 +2.61011e-002 	 -8.63015e-001 	 +3.93453e-002 	 +1.27971e-002 	 +1.89525e-002 	 -3.44572e-003 	 +2.49187e-002 	 
		-8.63014e-001 	 +3.93453e-002 	 -6.59399e-003 	 +2.59644e-002 	 -2.08015e-003 	 +2.45745e-002 	 +2.79340e-002 	 +1.84608e-002 	 
		+1.27972e-002 	 +1.89525e-002 	 -2.08004e-003 	 +2.45745e-002 	 +4.12144e-002 	 +3.12361e-002 	 -8.62449e-001 	 +4.36752e-002 	 
		-3.44599e-003 	 +2.49187e-002 	 +2.79340e-002 	 +1.84610e-002 	 -8.62450e-001 	 +4.36752e-002 	 -1.31856e-002 	 +3.28774e-002 	 

2.00000e+008 	+3.67331e-002 	 +3.44502e-002 	 -8.39826e-001 	 +1.79771e-001 	 +1.98731e-002 	 +3.73193e-002 	 +2.62990e-003 	 +2.72265e-002 	 
		-8.39826e-001 	 +1.79771e-001 	 +4.27907e-003 	 +3.92712e-002 	 +3.76442e-003 	 +2.65223e-002 	 +3.57827e-002 	 +3.41242e-002 	 
		+1.98731e-002 	 +3.73193e-002 	 +3.76454e-003 	 +2.65223e-002 	 +5.10349e-002 	 +3.87384e-002 	 -8.38122e-001 	 +1.83869e-001 	 
		+2.62964e-003 	 +2.72265e-002 	 +3.57827e-002 	 +3.41245e-002 	 -8.38123e-001 	 +1.83869e-001 	 -1.17309e-004 	 +4.76107e-002 	 

2.10000e+008 	+4.81212e-002 	 +3.92417e-002 	 -7.93962e-001 	 +3.13060e-001 	 +3.22525e-002 	 +5.23381e-002 	 +9.40162e-003 	 +2.74924e-002 	 
		-7.93962e-001 	 +3.13060e-001 	 +1.82674e-002 	 +4.83484e-002 	 +1.02088e-002 	 +2.65616e-002 	 +4.83629e-002 	 +4.62022e-002 	 
		+3.22526e-002 	 +5.23381e-002 	 +1.02089e-002 	 +2.65616e-002 	 +6.27726e-002 	 +4.26943e-002 	 -7.91318e-001 	 +3.16587e-001 	 
		+9.40138e-003 	 +2.74925e-002 	 +4.83629e-002 	 +4.62025e-002 	 -7.91319e-001 	 +3.16587e-001 	 +1.64871e-002 	 +5.74486e-002 	 

2.20000e+008 	+6.03045e-002 	 +4.00729e-002 	 -7.27480e-001 	 +4.35623e-001 	 +4.84896e-002 	 +6.25957e-002 	 +1.60259e-002 	 +2.56355e-002 	 
		-7.27480e-001 	 +4.35623e-001 	 +3.38294e-002 	 +5.25884e-002 	 +1.64781e-002 	 +2.46299e-002 	 +6.41539e-002 	 +5.34263e-002 	 
		+4.84897e-002 	 +6.25957e-002 	 +1.64782e-002 	 +2.46299e-002 	 +7.51320e-002 	 +4.27289e-002 	 -7.24141e-001 	 +4.38369e-001 	 
		+1.60257e-002 	 +2.56356e-002 	 +6.41539e-002 	 +5.34266e-002 	 -7.24142e-001 	 +4.38369e-001 	 +3.48259e-002 	 +6.16451e-002 	 

2.30000e+008 	+7.19649e-002 	 +3.69478e-002 	 -6.42884e-001 	 +5.44517e-001 	 +6.68274e-002 	 +6.72459e-002 	 +2.17474e-002 	 +2.19337e-002 	 
		-6.42884e-001 	 +5.44517e-001 	 +4.93465e-002 	 +5.18902e-002 	 +2.18839e-002 	 +2.09941e-002 	 +8.13718e-002 	 +5.51253e-002 	 
		+6.68274e-002 	 +6.72459e-002 	 +2.18840e-002 	 +2.09940e-002 	 +8.68198e-002 	 +3.89159e-002 	 -6.39128e-001 	 +5.46368e-001 	 
		+2.17472e-002 	 +2.19338e-002 	 +8.13719e-002 	 +5.51256e-002 	 -6.39128e-001 	 +5.46368e-001 	 +5.30306e-002 	 +6.00931e-002 	 

2.40000e+008 	+8.18914e-002 	 +3.02886e-002 	 -5.42959e-001 	 +6.37399e-001 	 +8.54042e-002 	 +6.60456e-002 	 +2.60321e-002 	 +1.69289e-002 	 
		-5.42958e-001 	 +6.37399e-001 	 +6.33076e-002 	 +4.66671e-002 	 +2.59461e-002 	 +1.61579e-002 	 +9.81832e-002 	 +5.12375e-002 	 
		+8.54042e-002 	 +6.60455e-002 	 +2.59462e-002 	 +1.61578e-002 	 +9.66850e-002 	 +3.17222e-002 	 -5.39063e-001 	 +6.38342e-001 	 
		+2.60319e-002 	 +1.69291e-002 	 +9.81833e-002 	 +5.12377e-002 	 -5.39064e-001 	 +6.38343e-001 	 +6.93677e-002 	 +5.32663e-002 	 

2.50000e+008 	+8.91013e-002 	 +2.08486e-002 	 -4.30632e-001 	 +7.12480e-001 	 +1.02437e-001 	 +5.93199e-002 	 +2.86434e-002 	 +1.12938e-002 	 
		-4.30632e-001 	 +7.12479e-001 	 +7.44587e-002 	 +3.77555e-002 	 +2.84591e-002 	 +1.07364e-002 	 +1.12887e-001 	 +4.22571e-002 	 
		+1.02437e-001 	 +5.93198e-002 	 +2.84592e-002 	 +1.07363e-002 	 +1.03816e-001 	 +2.19140e-002 	 -4.26844e-001 	 +7.12592e-001 	 
		+2.86433e-002 	 +1.12940e-002 	 +1.12887e-001 	 +4.22574e-002 	 -4.26844e-001 	 +7.12593e-001 	 +8.23917e-002 	 +4.21107e-002 	 

2.60000e+008 	+9.29065e-002 	 +9.60717e-003 	 -3.08885e-001 	 +7.68450e-001 	 +1.16369e-001 	 +4.78858e-002 	 +2.96524e-002 	 +5.68689e-003 	 
		-3.08885e-001 	 +7.68449e-001 	 +8.18958e-002 	 +2.62947e-002 	 +2.94955e-002 	 +5.32418e-003 	 +1.24053e-001 	 +2.91431e-002 	 
		+1.16369e-001 	 +4.78857e-002 	 +2.94955e-002 	 +5.32407e-003 	 +1.07593e-001 	 +1.04537e-002 	 -3.05391e-001 	 +7.67876e-001 	 
		+2.96523e-002 	 +5.68711e-003 	 +1.24053e-001 	 +2.91434e-002 	 -3.05391e-001 	 +7.67877e-001 	 +9.10419e-002 	 +2.79140e-002 	 

2.70000e+008 	+9.29394e-002 	 -2.33175e-003 	 -1.80708e-001 	 +8.04406e-001 	 +1.25980e-001 	 +3.29529e-002 	 +2.93854e-002 	 +6.25838e-004 	 
		-1.80708e-001 	 +8.04405e-001 	 +8.51133e-002 	 +1.36035e-002 	 +2.93545e-002 	 +3.80680e-004 	 +1.30624e-001 	 +1.32089e-002 	 
		+1.25980e-001 	 +3.29528e-002 	 +2.93545e-002 	 +3.80562e-004 	 +1.07698e-001 	 -1.59345e-003 	 -1.77615e-001 	 +8.03330e-001 	 
		+2.93854e-002 	 +6.26076e-004 	 +1.30624e-001 	 +1.32091e-002 	 -1.77615e-001 	 +8.03331e-001 	 +9.46929e-002 	 +1.21758e-002 	 

2.80000e+008 	+8.91521e-002 	 -1.38261e-002 	 -4.90921e-002 	 +8.19794e-001 	 +1.30465e-001 	 +1.60115e-002 	 +2.83289e-002 	 -3.60180e-003 	 
		-4.90920e-002 	 +8.19793e-001 	 +8.40183e-002 	 +1.06438e-003 	 +2.84717e-002 	 -3.84643e-003 	 +1.31983e-001 	 -3.99569e-003 	 
		+1.30465e-001 	 +1.60115e-002 	 +2.84717e-002 	 -3.84655e-003 	 +1.04115e-001 	 -1.31359e-002 	 -4.64251e-002 	 +8.18404e-001 	 
		+2.83288e-002 	 -3.60156e-003 	 +1.31984e-001 	 -3.99556e-003 	 -4.64252e-002 	 +8.18405e-001 	 +9.31737e-002 	 -3.51338e-003 	 

2.90000e+008 	+8.18052e-002 	 -2.37681e-002 	 +8.29503e-002 	 +8.14379e-001 	 +1.29489e-001 	 -1.28760e-003 	 +2.70072e-002 	 -6.97763e-003 	 
		+8.29503e-002 	 +8.14379e-001 	 +7.89242e-002 	 -9.98374e-003 	 +2.73070e-002 	 -7.35206e-003 	 +1.27999e-001 	 -2.08088e-002 	 
		+1.29489e-001 	 -1.28764e-003 	 +2.73070e-002 	 -7.35218e-003 	 +9.71118e-002 	 -2.31180e-002 	 +8.52426e-002 	 +8.12835e-001 	 
		+2.70072e-002 	 -6.97739e-003 	 +1.27999e-001 	 -2.08088e-002 	 +8.52427e-002 	 +8.12835e-001 	 +8.67689e-002 	 -1.75832e-002 	 

3.00000e+008 	+7.14514e-002 	 -3.11509e-002 	 +2.12363e-001 	 +7.88256e-001 	 +1.23217e-001 	 -1.72641e-002 	 +2.58573e-002 	 -9.73701e-003 	 
		+2.12363e-001 	 +7.88256e-001 	 +7.05287e-002 	 -1.83472e-002 	 +2.62315e-002 	 -1.03542e-002 	 +1.19043e-001 	 -3.55908e-002 	 
		+1.23217e-001 	 -1.72641e-002 	 +2.62315e-002 	 -1.03543e-002 	 +8.72342e-002 	 -3.05772e-002 	 +2.14387e-001 	 +7.86659e-001 	 
		+2.58574e-002 	 -9.73677e-003 	 +1.19043e-001 	 -3.55908e-002 	 +2.14388e-001 	 +7.86660e-001 	 +7.62061e-002 	 -2.85938e-002 	 

3.10000e+008 	+5.89142e-002 	 -3.51356e-002 	 +3.36031e-001 	 +7.41887e-001 	 +1.12316e-001 	 -3.03492e-002 	 +2.51199e-002 	 -1.23005e-002 	 
		+3.36031e-001 	 +7.41886e-001 	 +5.98727e-002 	 -2.30804e-002 	 +2.54322e-002 	 -1.32269e-002 	 +1.05986e-001 	 -4.68695e-002 	 
		+1.12315e-001 	 -3.03493e-002 	 +2.54321e-002 	 -1.32270e-002 	 +7.52890e-002 	 -3.47076e-002 	 +3.37919e-001 	 +7.40264e-001 	 
		+2.51200e-002 	 -1.23002e-002 	 +1.05986e-001 	 -4.68695e-002 	 +3.37919e-001 	 +7.40265e-001 	 +6.26263e-002 	 -3.53516e-002 	 

3.20000e+008 	+4.52522e-002 	 -3.51272e-002 	 +4.50796e-001 	 +6.76174e-001 	 +9.79169e-002 	 -3.92361e-002 	 +2.47688e-002 	 -1.51608e-002 	 
		+4.50796e-001 	 +6.76174e-001 	 +4.82722e-002 	 -2.35886e-002 	 +2.48534e-002 	 -1.63944e-002 	 +9.01446e-002 	 -5.34949e-002 	 
		+9.79169e-002 	 -3.92361e-002 	 +2.48534e-002 	 -1.63945e-002 	 +6.23179e-002 	 -3.49351e-002 	 +4.52666e-001 	 +6.74477e-001 	 
		+2.47689e-002 	 -1.51606e-002 	 +9.01449e-002 	 -5.34949e-002 	 +4.52667e-001 	 +6.74477e-001 	 +4.75245e-002 	 -3.70340e-002 	 

3.30000e+008 	+3.16937e-002 	 -3.08520e-002 	 +5.53507e-001 	 +5.92549e-001 	 +8.15309e-002 	 -4.30268e-002 	 +2.44976e-002 	 -1.87434e-002 	 
		+5.53507e-001 	 +5.92548e-001 	 +3.72093e-002 	 -1.97240e-002 	 +2.41925e-002 	 -2.02037e-002 	 +7.31766e-002 	 -5.47871e-002 	 
		+8.15308e-002 	 -4.30268e-002 	 +2.41924e-002 	 -2.02038e-002 	 +4.95424e-002 	 -3.09998e-002 	 +5.55435e-001 	 +5.90664e-001 	 
		+2.44977e-002 	 -1.87432e-002 	 +7.31768e-002 	 -5.47871e-002 	 +5.55436e-001 	 +5.90665e-001 	 +3.26437e-002 	 -3.33130e-002 	 

3.40000e+008 	+1.95275e-002 	 -2.24158e-002 	 +6.41143e-001 	 +4.93043e-001 	 +6.49003e-002 	 -4.13547e-002 	 +2.37743e-002 	 -2.32687e-002 	 
		+6.41142e-001 	 +4.93042e-001 	 +2.81737e-002 	 -1.18390e-002 	 +2.29553e-002 	 -2.48028e-002 	 +5.69130e-002 	 -5.06571e-002 	 
		+6.49003e-002 	 -4.13547e-002 	 +2.29552e-002 	 -2.48029e-002 	 +3.82698e-002 	 -2.30329e-002 	 +6.43150e-001 	 +4.90821e-001 	 
		+2.37744e-002 	 -2.32685e-002 	 +5.69132e-002 	 -5.06572e-002 	 +6.43151e-001 	 +4.90822e-001 	 +1.98152e-002 	 -2.44496e-002 	 

3.50000e+008 	+9.98941e-003 	 -1.02554e-002 	 +7.10953e-001 	 +3.80412e-001 	 +4.98172e-002 	 -3.44481e-002 	 +2.19676e-002 	 -2.86460e-002 	 
		+7.10952e-001 	 +3.80411e-001 	 +2.24855e-002 	 -7.44340e-004 	 +2.05761e-002 	 -3.00468e-002 	 +4.31480e-002 	 -4.16590e-002 	 
		+4.98172e-002 	 -3.44481e-002 	 +2.05760e-002 	 -3.00469e-002 	 +2.97543e-002 	 -1.15898e-002 	 +7.13003e-001 	 +3.77628e-001 	 
		+2.19679e-002 	 -2.86458e-002 	 +4.31482e-002 	 -4.16590e-002 	 +7.13003e-001 	 +3.77628e-001 	 +1.07421e-002 	 -1.13469e-002 	 

3.60000e+008 	+4.38396e-003 	 +4.77893e-003 	 +7.60915e-001 	 +2.58029e-001 	 +3.79313e-002 	 -2.31431e-002 	 +1.85157e-002 	 -3.44502e-002 	 
		+7.60914e-001 	 +2.58029e-001 	 +2.13053e-002 	 +1.22756e-002 	 +1.65868e-002 	 -3.54790e-002 	 +3.33825e-002 	 -2.89829e-002 	 
		+3.79313e-002 	 -2.31431e-002 	 +1.65867e-002 	 -3.54790e-002 	 +2.50636e-002 	 +2.36549e-003 	 +7.62690e-001 	 +2.54427e-001 	 
		+1.85159e-002 	 -3.44501e-002 	 +3.33827e-002 	 -2.89830e-002 	 +7.62691e-001 	 +2.54427e-001 	 +6.73758e-003 	 +4.49080e-003 	 

