! freq	real(S11)	imag(S11)	real(S12)	imag(S12)	real(S13)	imag(S13)	
!     	real(S14)	imag(S14)	
!     	real(S21)	imag(S21)	real(S22)	imag(S22)	real(S23)	imag(S23)	
!     	real(S24)	imag(S24)	
!     	real(S31)	imag(S31)	real(S32)	imag(S32)	real(S33)	imag(S33)	
!     	real(S34)	imag(S34)	
!     	real(S41)	imag(S41)	real(S42)	imag(S42)	real(S43)	imag(S43)	
!     	real(S44)	imag(S44)	
!port1: p1  port2: p2  port3: p3  port4: p4
#  MHz  S  RI  R 50
0.000000000	0.000635665	0.000000000	0.999358020	-0.000000000	0.000048678	-0.000000000	-0.000071105	0.000000000
		0.999358015	-0.000000000	0.000635682	0.000000000	-0.000071100	0.000000000	0.000048728	0.000000000
		0.000053295	-0.000000000	-0.000102348	0.000000000	0.000634634	0.000000000	0.999359118	-0.000000000
		-0.000102349	0.000000000	0.000053290	-0.000000000	0.999359093	0.000000000	0.000634679	-0.000000000
5.000000000	0.001271982	0.000026939	0.998655634	-0.005094813	0.000326625	0.000043953	-0.000134418	-0.000010681
		0.998655621	-0.005094795	0.001273678	0.000026118	-0.000134407	-0.000010679	0.000326194	0.000044125
		0.000330596	0.000044314	-0.000162153	-0.000013230	0.001268675	0.000025915	0.998657997	-0.005079103
		-0.000162164	-0.000013233	0.000329949	0.000044507	0.998658017	-0.005079103	0.001270117	0.000025136
10.000000000	0.001907158	0.000080819	0.997927292	-0.010182460	0.000588747	0.000161374	-0.000196090	-0.000031360
		0.997927272	-0.010182423	0.001910602	0.000078392	-0.000196068	-0.000031353	0.000587692	0.000161960
		0.000592142	0.000161651	-0.000220085	-0.000036155	0.001901644	0.000077723	0.997931095	-0.010151074
		-0.000220107	-0.000036163	0.000590689	0.000162312	0.997931130	-0.010151075	0.001904574	0.000075414
15.000000000	0.002540338	0.000161598	0.997173050	-0.015262808	0.000820544	0.000348169	-0.000254934	-0.000061812
		0.997173023	-0.015262752	0.002545650	0.000156781	-0.000254903	-0.000061799	0.000818605	0.000349355
		0.000823579	0.000347960	-0.000274969	-0.000068525	0.002532761	0.000155384	0.997178452	-0.015215783
		-0.000274999	-0.000068542	0.000821015	0.000349297	0.997178502	-0.015215784	0.002537291	0.000150799
20.000000000	0.003170667	0.000269208	0.996392962	-0.020335726	0.001008417	0.000597714	-0.000309797	-0.000101689
		0.996392928	-0.020335651	0.003178019	0.000261227	-0.000309758	-0.000101667	0.001005231	0.000599594
		0.001011432	0.000596696	-0.000325658	-0.000109965	0.003161235	0.000258839	0.996400122	-0.020273099
		-0.000325695	-0.000109992	0.001007332	0.000598812	0.996400187	-0.020273101	0.003167521	0.000251238
25.000000000	0.003797293	0.000403560	0.995587085	-0.025401082	0.001140071	0.000901032	-0.000359565	-0.000150521
		0.995587045	-0.025400988	0.003806909	0.000391646	-0.000359519	-0.000150488	0.001135195	0.000903582
		0.001143516	0.000898992	-0.000371049	-0.000159975	0.003786276	0.000388009	0.995596161	-0.025322893
		-0.000371092	-0.000160015	0.001137362	0.000901846	0.995596242	-0.025322895	0.003794522	0.000376656
30.000000000	0.004419368	0.000564540	0.994755475	-0.030458745	0.001204900	0.001247032	-0.000403174	-0.000207721
		0.994755429	-0.030458632	0.004431519	0.000547934	-0.000403124	-0.000207675	0.001197846	0.001250083
		0.001209301	0.001243892	-0.000410097	-0.000217937	0.004407097	0.000542790	0.994766626	-0.030365033
		-0.000410143	-0.000217993	0.001200521	0.001247276	0.994766722	-0.030365037	0.004417553	0.000526961
35.000000000	0.005036045	0.000752007	0.993898191	-0.035508585	0.001194323	0.001622814	-0.000439625	-0.000272592
		0.993898139	-0.035508453	0.005051055	0.000729966	-0.000439572	-0.000272532	0.001184587	0.001626038
		0.001200253	0.001618648	-0.000441823	-0.000283123	0.005022912	0.000723058	0.993911574	-0.035399391
		-0.000441868	-0.000283196	0.001188260	0.001622164	0.993911686	-0.035399396	0.005035874	0.000702038
40.000000000	0.005646482	0.000965801	0.993015290	-0.040550471	0.001102065	0.002014012	-0.000467992	-0.000344331
		0.993015232	-0.040550320	0.005664725	0.000937592	-0.000467940	-0.000344255	0.001089176	0.002016911
		0.001110108	0.002009061	-0.000465326	-0.000354697	0.005632941	0.000928668	0.993031063	-0.040425838
		-0.000465368	-0.000354788	0.001094353	0.002012115	0.993031189	-0.040425844	0.005648750	0.000901757
45.000000000	0.006249843	0.001205735	0.992106832	-0.045584274	0.000924392	0.002405192	-0.000487435	-0.000422040
		0.992106768	-0.045584103	0.006271740	0.001170645	-0.000487385	-0.000421948	0.000907949	0.002407102
		0.000935103	0.002399870	-0.000479798	-0.000431727	0.006236406	0.001159453	0.992125150	-0.045444245
		-0.000479832	-0.000431837	0.000915120	0.002401668	0.992125292	-0.045444253	0.006255448	0.001125964
50.000000000	0.006845294	0.001471599	0.991172875	-0.050609863	0.000660269	0.002780280	-0.000497206	-0.000504731
		0.991172806	-0.050609674	0.006871316	0.001428933	-0.000497162	-0.000504621	0.000639985	0.002780377
		0.000674133	0.002775168	-0.000484526	-0.000513192	0.006832533	0.001415227	0.991193895	-0.050454483
		-0.000484550	-0.000513321	0.000649593	0.002774731	0.991194052	-0.050454493	0.006855241	0.001374489
55.000000000	0.007132378	0.001276300	0.990581152	-0.055184827	0.000718321	0.003021710	-0.000518821	-0.000529905
		0.990581125	-0.055184661	0.007163111	0.001228256	-0.000518766	-0.000529783	0.000692748	0.003022433
		0.000731794	0.003017970	-0.000506925	-0.000536974	0.007120466	0.001216135	0.990604202	-0.055014904
		-0.000506959	-0.000537120	0.000702310	0.003018180	0.990604331	-0.055014904	0.007147049	0.001170141
60.000000000	0.007413862	0.001062808	0.989968321	-0.059755393	0.000776481	0.003263113	-0.000540287	-0.000555215
		0.989968335	-0.059755251	0.007448991	0.001008752	-0.000540221	-0.000555081	0.000745062	0.003264588
		0.000789255	0.003260819	-0.000529321	-0.000560758	0.007402543	0.000998536	0.989993536	-0.059570953
		-0.000529365	-0.000560920	0.000754374	0.003261775	0.989993635	-0.059570942	0.007432684	0.000946713
65.000000000	0.007688829	0.000831286	0.989334409	-0.064321463	0.000834750	0.003504490	-0.000561603	-0.000580662
		0.989334464	-0.064321345	0.007727990	0.000770598	-0.000561525	-0.000580515	0.000796926	0.003506844
		0.000846516	0.003503716	-0.000551715	-0.000584544	0.007677818	0.000762607	0.989361922	-0.064122534
		-0.000551769	-0.000584724	0.000805784	0.003505516	0.989361992	-0.064122512	0.007711156	0.000704398
70.000000000	0.007956365	0.000581940	0.988679444	-0.068882940	0.000893128	0.003745841	-0.000582768	-0.000606244
		0.988679541	-0.068882848	0.007999148	0.000514018	-0.000582679	-0.000606085	0.000848342	0.003749198
		0.000903577	0.003746661	-0.000574106	-0.000608333	0.007945350	0.000508566	0.988709391	-0.068669550
		-0.000574170	-0.000608529	0.000856540	0.003749400	0.988709432	-0.068669517	0.007981481	0.000443433
75.000000000	0.008215563	0.000315017	0.988003457	-0.073439728	0.000951613	0.003987167	-0.000603781	-0.000631961
		0.988003595	-0.073439661	0.008261513	0.000239280	-0.000603681	-0.000631790	0.000899308	0.003991650
		0.000960437	0.003989654	-0.000596495	-0.000632124	0.008204208	0.000236679	0.988035969	-0.073211905
		-0.000596568	-0.000632338	0.000906643	0.003993426	0.988035982	-0.073211860	0.008242684	0.000164104
80.000000000	0.008465527	0.000030804	0.987306476	-0.077991729	0.001010207	0.004228466	-0.000624643	-0.000657811
		0.987306654	-0.077991688	0.008514142	-0.000053304	-0.000624531	-0.000657628	0.000949824	0.004234200
		0.001017097	0.004232694	-0.000618881	-0.000655917	0.008453469	-0.000052750	0.987341688	-0.077749503
		-0.000618964	-0.000656148	0.000956091	0.004237593	0.987341672	-0.077749447	0.008493801	-0.000133262
85.000000000	0.008705368	-0.000270367	0.986588530	-0.082538847	0.001068910	0.004469739	-0.000645352	-0.000683795
		0.986588749	-0.082538832	0.008756103	-0.000363380	-0.000645228	-0.000683600	0.000999892	0.004476847
		0.001073557	0.004475782	-0.000641265	-0.000679713	0.008692220	-0.000359370	0.986626575	-0.082282248
		-0.000641358	-0.000679961	0.001004884	0.004481900	0.986626531	-0.082282180	0.008733877	-0.000448287
90.000000000	0.008934210	-0.000588127	0.985849651	-0.087080985	0.001127720	0.004710986	-0.000665908	-0.000709912
		0.985849911	-0.087080996	0.008986478	-0.000690547	-0.000665772	-0.000709704	0.001049509	0.004719591
		0.001129816	0.004718917	-0.000663646	-0.000703511	0.008919562	-0.000682790	0.985890662	-0.086810046
		-0.000663748	-0.000703777	0.001053022	0.004726345	0.985890589	-0.086809966	0.008961975	-0.000780552
95.000000000	0.009151194	-0.000922066	0.985089869	-0.091618048	0.001186639	0.004952206	-0.000686309	-0.000736160
		0.985090169	-0.091618085	0.009204365	-0.001034363	-0.000686162	-0.000735940	0.001098676	0.004962430
		0.001185874	0.004962099	-0.000686024	-0.000727312	0.009134611	-0.001022577	0.985133978	-0.091332800
		-0.000686136	-0.000727595	0.001100505	0.004970927	0.985133877	-0.091332707	0.009177173	-0.001129591
100.000000000	0.009355471	-0.001271732	0.984309216	-0.096149938	0.001245667	0.005193401	-0.000706557	-0.000762539
		0.984309555	-0.096150002	0.009408878	-0.001394343	-0.000706398	-0.000762308	0.001147394	0.005205364
		0.001241732	0.005205328	-0.000708400	-0.000751115	0.009336500	-0.001378255	0.984356555	-0.095850415
		-0.000708522	-0.000751416	0.001147333	0.005215645	0.984356426	-0.095850310	0.009378566	-0.001494898
105.000000000	0.009543080	-0.001571310	0.983584448	-0.100591817	0.001317706	0.005425731	-0.000724385	-0.000782510
		0.983584739	-0.100591842	0.009599449	-0.001702459	-0.000724201	-0.000782243	0.001207540	0.005438955
		0.001315421	0.005438659	-0.000725342	-0.000770519	0.009524694	-0.001682106	0.983634747	-0.100278087
		-0.000725507	-0.000770967	0.001211765	0.005451179	0.983634499	-0.100278055	0.009568406	-0.001806904
110.000000000	0.009721064	-0.001882397	0.982839642	-0.105029096	0.001391074	0.005657692	-0.000742195	-0.000802498
		0.982839886	-0.105029081	0.009779921	-0.002022489	-0.000741986	-0.000802195	0.001268397	0.005672376
		0.001390584	0.005671577	-0.000742247	-0.000789956	0.009702990	-0.001997652	0.982893029	-0.104701188
		-0.000742454	-0.000790552	0.001277242	0.005686452	0.982892662	-0.104701227	0.009747881	-0.002130944
115.000000000	0.009888925	-0.002204685	0.982074825	-0.109461684	0.001465771	0.005889278	-0.000759986	-0.000822502
		0.982075022	-0.109461629	0.009949771	-0.002354104	-0.000759753	-0.000822164	0.001329965	0.005905623
		0.001467220	0.005904075	-0.000759117	-0.000809424	0.009870878	-0.002324571	0.982131428	-0.109119629
		-0.000759363	-0.000810172	0.001343764	0.005921461	0.982130942	-0.109119739	0.009916461	-0.002466673
120.000000000	0.010046175	-0.002537844	0.981290024	-0.113889492	0.001541794	0.006120483	-0.000777760	-0.000842524
		0.981290174	-0.113889396	0.010108490	-0.002696952	-0.000777501	-0.000842149	0.001392243	0.006138696
		0.001545326	0.006136146	-0.000775952	-0.000828925	0.010027860	-0.002662522	0.981349972	-0.113533320
		-0.000776234	-0.000829827	0.001411328	0.006156203	0.981349366	-0.113533499	0.010073623	-0.002813729
125.000000000	0.010192338	-0.002881529	0.980485266	-0.118312430	0.001619143	0.006351302	-0.000795514	-0.000862561
		0.980485370	-0.118312293	0.010255577	-0.003050663	-0.000795231	-0.000862150	0.001455232	0.006371593
		0.001624900	0.006367783	-0.000792750	-0.000848458	0.010173448	-0.003011143	0.980548688	-0.117942173
		-0.000793066	-0.000849516	0.001479936	0.006390675	0.980547961	-0.117942420	0.010218861	-0.003171728
130.000000000	0.010326949	-0.003235375	0.979660580	-0.122730407	0.001697815	0.006581729	-0.000813250	-0.000882616
		0.979660638	-0.122730228	0.010390544	-0.003414849	-0.000812943	-0.000882168	0.001518930	0.006604313
		0.001705941	0.006598980	-0.000809513	-0.000868024	0.010307166	-0.003370057	0.979727603	-0.122346097
		-0.000809859	-0.000869239	0.001549584	0.006624873	0.979726755	-0.122346411	0.010351680	-0.003540266
135.000000000	0.010449552	-0.003598998	0.978815995	-0.127143334	0.001777809	0.006811759	-0.000830968	-0.000902687
		0.978816006	-0.127143113	0.010512917	-0.003789101	-0.000830637	-0.000902203	0.001583338	0.006836853
		0.001788446	0.006829728	-0.000826240	-0.000887621	0.010428550	-0.003738866	0.978886747	-0.126745005
		-0.000826614	-0.000888996	0.001620274	0.006858793	0.978885776	-0.126745385	0.010471596	-0.003918921
140.000000000	0.010559706	-0.003972000	0.977951538	-0.131551121	0.001859123	0.007041385	-0.000848667	-0.000922775
		0.977951504	-0.131550857	0.010622236	-0.004172993	-0.000848312	-0.000922254	0.001648455	0.007069213
		0.001872413	0.007060022	-0.000842930	-0.000907250	0.010537149	-0.004117154	0.978026146	-0.131138807
		-0.000843330	-0.000908788	0.001692003	0.007092432	0.978025053	-0.131139252	0.010578143	-0.004307251
145.000000000	0.010656985	-0.004353962	0.977067239	-0.135953678	0.001941755	0.007270602	-0.000866348	-0.000942880
		0.977067161	-0.135953372	0.010718052	-0.004566079	-0.000865969	-0.000942321	0.001714281	0.007301390
		0.001957842	0.007289854	-0.000859585	-0.000926911	0.010632528	-0.004504489	0.977145831	-0.135527415
		-0.000860008	-0.000928614	0.001764772	0.007325787	0.977144614	-0.135527924	0.010670867	-0.004704796
150.000000000	0.010740972	-0.004744451	0.976163129	-0.140350917	0.002025705	0.007499404	-0.000884010	-0.000963001
		0.976163006	-0.140350567	0.010799934	-0.004967897	-0.000883608	-0.000962405	0.001780815	0.007533383
		0.002044728	0.007519218	-0.000876204	-0.000946604	0.010714264	-0.004900420	0.976245831	-0.139910741
		-0.000876647	-0.000948474	0.001838578	0.007558855	0.976244490	-0.139911312	0.010749331	-0.005111078
155.000000000	0.010867210	-0.005083912	0.975283689	-0.144713257	0.002115117	0.007721451	-0.000897412	-0.000979266
		0.975283585	-0.144712884	0.010928449	-0.005318143	-0.000896970	-0.000978646	0.001856130	0.007759912
		0.002135124	0.007740399	-0.000888651	-0.000962961	0.010840751	-0.005244477	0.975370670	-0.144259152
		-0.000889174	-0.000964912	0.001915549	0.007783387	0.975369258	-0.144259675	0.010876545	-0.005465278
160.000000000	0.010983680	-0.005431003	0.974384760	-0.149070522	0.002206131	0.007942954	-0.000910787	-0.000995556
		0.974384677	-0.149070126	0.011046721	-0.005676280	-0.000910305	-0.000994911	0.001932661	0.007986092
		0.002227155	0.007961018	-0.000901051	-0.000979356	0.010957263	-0.005596238	0.974476146	-0.148602525
		-0.000901654	-0.000981389	0.001993751	0.008007556	0.974474664	-0.148602998	0.010993313	-0.005827391
165.000000000	0.011090113	-0.005785459	0.973466371	-0.153422624	0.002298742	0.008163906	-0.000924135	-0.001011868
		0.973466308	-0.153422206	0.011154470	-0.006042026	-0.000923613	-0.001011199	0.002010405	0.008211918
		0.002320817	0.008181068	-0.000913404	-0.000995792	0.011063525	-0.005955429	0.973562287	-0.152940773
		-0.000914086	-0.000997906	0.002073181	0.008231357	0.973560735	-0.152941197	0.011099351	-0.006197130
170.000000000	0.011186245	-0.006147005	0.972528549	-0.157769478	0.002392949	0.008384298	-0.000937457	-0.001028204
		0.972528507	-0.157769036	0.011251422	-0.006415090	-0.000936894	-0.001027511	0.002089361	0.008437387
		0.002416108	0.008400539	-0.000925709	-0.001012267	0.011159272	-0.006321771	0.972629121	-0.157273810
		-0.000926471	-0.001014462	0.002153838	0.008454784	0.972627500	-0.157274184	0.011194384	-0.006574194
175.000000000	0.011271821	-0.006515359	0.971571324	-0.162110995	0.002488748	0.008604120	-0.000950751	-0.001044563
		0.971571302	-0.162110531	0.011337310	-0.006795173	-0.000950147	-0.001043847	0.002169529	0.008662493
		0.002513024	0.008619422	-0.000937966	-0.001028781	0.011244247	-0.006694972	0.971676676	-0.161601551
		-0.000938809	-0.001031057	0.002235721	0.008677833	0.971674987	-0.161601875	0.011278144	-0.006958279
180.000000000	0.011346593	-0.006890232	0.970594725	-0.166447090	0.002586138	0.008823366	-0.000964018	-0.001060945
		0.970594723	-0.166446604	0.011411876	-0.007181968	-0.000963372	-0.001060205	0.002250905	0.008887230
		0.002611563	0.008837709	-0.000950176	-0.001045334	0.011318198	-0.007074738	0.970704982	-0.165923910
		-0.000951099	-0.001047691	0.002318829	0.008900498	0.970703224	-0.165924182	0.011350372	-0.007349069
185.000000000	0.011410320	-0.007271326	0.969598780	-0.170777676	0.002685114	0.009042026	-0.000977258	-0.001077351
		0.969598799	-0.170777167	0.011474871	-0.007575160	-0.000976571	-0.001076588	0.002333491	0.009111595
		0.002711721	0.009055390	-0.000962338	-0.001061927	0.011380884	-0.007460763	0.969714067	-0.170240801
		-0.000963342	-0.001064364	0.002403159	0.009122775	0.969712241	-0.170241021	0.011410817	-0.007746242
190.000000000	0.011462770	-0.007658337	0.968583520	-0.175102667	0.002785674	0.009260091	-0.000990471	-0.001093780
		0.968583560	-0.175102136	0.011526053	-0.007974425	-0.000989741	-0.001092994	0.002417282	0.009335583
		0.002813496	0.009272456	-0.000974452	-0.001078558	0.011432068	-0.007852737	0.968703961	-0.174552138
		-0.000975537	-0.001081076	0.002488711	0.009344659	0.968702067	-0.174552306	0.011459237	-0.008149468
195.000000000	0.011503716	-0.008050953	0.967548975	-0.179421976	0.002887815	0.009477554	-0.001003656	-0.001110232
		0.967549036	-0.179421424	0.011565188	-0.008379435	-0.001002885	-0.001109423	0.002502280	0.009559188
		0.002916883	0.009488900	-0.000986518	-0.001095228	0.011471526	-0.008250338	0.967674693	-0.178857837
		-0.000987684	-0.001097826	0.002575483	0.009566144	0.967672732	-0.178857952	0.011495398	-0.008558408
200.000000000	0.011532944	-0.008448855	0.966495175	-0.183735519	0.002991534	0.009694405	-0.001016815	-0.001126707
		0.966495258	-0.183734944	0.011592053	-0.008789851	-0.001016001	-0.001125876	0.002588481	0.009782406
		0.003021881	0.009704711	-0.000998536	-0.001111938	0.011499040	-0.008653243	0.966626295	-0.183157812
		-0.000999783	-0.001114615	0.002663473	0.009787226	0.966624267	-0.183157874	0.011519075	-0.008972718
205.000000000	0.011603487	-0.008817820	0.965443927	-0.188019977	0.003099570	0.009904919	-0.001027502	-0.001142402
		0.965444021	-0.188019416	0.011662707	-0.009171684	-0.001026642	-0.001141554	0.002679239	0.009999006
		0.003130010	0.009914401	-0.001008411	-0.001128154	0.011569483	-0.009027016	0.965580517	-0.187428801
		-0.001009720	-0.001130854	0.002753900	0.010002179	0.965578488	-0.187428791	0.011587778	-0.009358434
210.000000000	0.011664559	-0.009191818	0.964373693	-0.192298706	0.003209322	0.010114725	-0.001038139	-0.001158136
		0.964373797	-0.192298157	0.011723430	-0.009558685	-0.001037232	-0.001157272	0.002771376	0.010215132
		0.003239835	0.010123388	-0.001018217	-0.001144423	0.011630309	-0.009405835	0.964515874	-0.191694104
		-0.001019588	-0.001147143	0.002845626	0.010216679	0.964513844	-0.191694023	0.011646403	-0.009749289
215.000000000	0.011716007	-0.009570628	0.963284503	-0.196571620	0.003320786	0.010323812	-0.001048726	-0.001173909
		0.963284617	-0.196571084	0.011774063	-0.009950620	-0.001047773	-0.001173029	0.002864888	0.010430778
		0.003351352	0.010331660	-0.001027953	-0.001160742	0.011681366	-0.009789480	0.963432396	-0.195953637
		-0.001029387	-0.001163483	0.002938650	0.010430721	0.963430367	-0.195953485	0.011694792	-0.010145045
220.000000000	0.011757680	-0.009954026	0.962176387	-0.200838636	0.003433957	0.010532172	-0.001059263	-0.001189721
		0.962176511	-0.200838113	0.011814452	-0.010347253	-0.001058262	-0.001188824	0.002959773	0.010645937
		0.003464556	0.010539208	-0.001037620	-0.001177112	0.011722502	-0.010177721	0.962330114	-0.200207317
		-0.001039117	-0.001179873	0.003032971	0.010644298	0.962328086	-0.200207094	0.011732791	-0.010545463
225.000000000	0.011789436	-0.010341785	0.961049377	-0.205099671	0.003548833	0.010739792	-0.001069750	-0.001205571
		0.961049510	-0.205099160	0.011844449	-0.010748345	-0.001068701	-0.001204659	0.003056030	0.010860603
		0.003579444	0.010746022	-0.001047216	-0.001193533	0.011753576	-0.010570330	0.961209058	-0.204455063
		-0.001048778	-0.001196314	0.003128585	0.010857405	0.961207031	-0.204454768	0.011760253	-0.010950299
230.000000000	0.011811134	-0.010733673	0.959903504	-0.209354639	0.003665407	0.010946663	-0.001080186	-0.001221460
