! freq	real(S11)	imag(S11)	real(S12)	imag(S12)	real(S13)	imag(S13)	
!     	real(S14)	imag(S14)	
!     	real(S21)	imag(S21)	real(S22)	imag(S22)	real(S23)	imag(S23)	
!     	real(S24)	imag(S24)	
!     	real(S31)	imag(S31)	real(S32)	imag(S32)	real(S33)	imag(S33)	
!     	real(S34)	imag(S34)	
!     	real(S41)	imag(S41)	real(S42)	imag(S42)	real(S43)	imag(S43)	
!     	real(S44)	imag(S44)	
!port1: p1  port2: p2  port3: p3  port4: p4
#  MHz  S  RI  R 50
0.000000000	0.001218389	-0.000000000	0.998750054	0.000000000	0.000083977	0.000000000	-0.000082942	0.000000000
		0.998750054	-0.000000000	0.001218969	0.000000000	-0.000082940	0.000000000	0.000084010	-0.000000000
		0.000083974	-0.000000000	-0.000082943	0.000000000	0.001218544	-0.000000000	0.998746803	0.000000000
		-0.000082945	0.000000000	0.000084008	-0.000000000	0.998746803	0.000000000	0.001218626	-0.000000000
5.000000000	0.001514882	0.000062244	0.998447964	-0.002896719	0.000195995	0.000026752	-0.000111363	-0.000010402
		0.998447964	-0.002896719	0.001515189	0.000061547	-0.000111357	-0.000010405	0.000195868	0.000026708
		0.000195993	0.000026752	-0.000111359	-0.000010405	0.001504391	0.000052169	0.998443517	-0.002910986
		-0.000111366	-0.000010402	0.000195866	0.000026708	0.998443517	-0.002910986	0.001505147	0.000051280
10.000000000	0.001807818	0.000148812	0.998137476	-0.005791684	0.000300248	0.000083520	-0.000138318	-0.000026067
		0.998137476	-0.005791684	0.001807932	0.000147120	-0.000138307	-0.000026074	0.000299983	0.000083360
		0.000300246	0.000083519	-0.000138310	-0.000026074	0.001787742	0.000124139	0.998131750	-0.005820203
		-0.000138321	-0.000026067	0.000299982	0.000083360	0.998131750	-0.005820203	0.001789257	0.000122060
15.000000000	0.002095699	0.000259496	0.997818596	-0.008684873	0.000390733	0.000168417	-0.000163079	-0.000046789
		0.997818596	-0.008684873	0.002095736	0.000256517	-0.000163062	-0.000046801	0.000390374	0.000168078
		0.000390731	0.000168416	-0.000163064	-0.000046801	0.002067569	0.000215787	0.997811508	-0.008727627
		-0.000163081	-0.000046790	0.000390373	0.000168077	0.997811508	-0.008727627	0.002069959	0.000212225
20.000000000	0.002377042	0.000394007	0.997491332	-0.011576260	0.000461851	0.000278495	-0.000184944	-0.000072274
		0.997491332	-0.011576260	0.002377154	0.000389460	-0.000184919	-0.000072291	0.000461460	0.000277924
		0.000461849	0.000278494	-0.000184921	-0.000072291	0.002342848	0.000326945	0.997482800	-0.011633233
		-0.000184946	-0.000072274	0.000461459	0.000277924	0.997482800	-0.011633233	0.002346265	0.000321613
25.000000000	0.002650380	0.000551973	0.997155693	-0.014465821	0.000508583	0.000409823	-0.000203248	-0.000102139
		0.997155693	-0.014465821	0.002650750	0.000545589	-0.000203214	-0.000102162	0.000508236	0.000408986
		0.000508582	0.000409822	-0.000203215	-0.000102163	0.002612566	0.000457396	0.997145633	-0.014536997
		-0.000203250	-0.000102140	0.000508235	0.000408986	0.997145633	-0.014536997	0.002617192	0.000450019
30.000000000	0.002914263	0.000732945	0.996811685	-0.017353532	0.000526651	0.000557596	-0.000217377	-0.000135924
		0.996811686	-0.017353532	0.002915110	0.000724470	-0.000217330	-0.000135952	0.000526436	0.000556478
		0.000526651	0.000557595	-0.000217332	-0.000135953	0.002875716	0.000606874	0.996800016	-0.017438893
		-0.000217378	-0.000135924	0.000526435	0.000556477	0.996800016	-0.017438893	0.002881767	0.000597191
35.000000000	0.003167269	0.000936391	0.996459318	-0.020239369	0.000512659	0.000716265	-0.000226771	-0.000173089
		0.996459318	-0.020239369	0.003168841	0.000925591	-0.000226710	-0.000173122	0.000512669	0.000714873
		0.000512658	0.000716265	-0.000226711	-0.000173122	0.003131308	0.000775072	0.996445957	-0.020338898
		-0.000226772	-0.000173089	0.000512668	0.000714872	0.996445957	-0.020338898	0.003139028	0.000762835
40.000000000	0.003408004	0.001161705	0.996098598	-0.023123307	0.000464209	0.000879695	-0.000230938	-0.000213027
		0.996098598	-0.023123307	0.003410581	0.001148365	-0.000230860	-0.000213064	0.000464540	0.000878059
		0.000464208	0.000879694	-0.000230861	-0.000213064	0.003378362	0.000961631	0.996083463	-0.023236987
		-0.000230938	-0.000213027	0.000464540	0.000878058	0.996083463	-0.023236987	0.003388028	0.000946612
45.000000000	0.003635103	0.001408202	0.995729535	-0.026005323	0.000379998	0.001041330	-0.000229457	-0.000255071
		0.995729535	-0.026005323	0.003638995	0.001392131	-0.000229360	-0.000255109	0.000380743	0.001039506
		0.000379998	0.001041330	-0.000229361	-0.000255110	0.003615916	0.001166151	0.995712542	-0.026133135
		-0.000229458	-0.000255071	0.000380743	0.001039506	0.995712542	-0.026133135	0.003627831	0.001148141
50.000000000	0.003847241	0.001675123	0.995352135	-0.028885392	0.000259881	0.001194387	-0.000221990	-0.000298499
		0.995352135	-0.028885392	0.003852784	0.001656155	-0.000221872	-0.000298538	0.000261122	0.001192455
		0.000259880	0.001194387	-0.000221873	-0.000298538	0.003843024	0.001388187	0.995333204	-0.029027317
		-0.000221991	-0.000298499	0.000261121	0.001192455	0.995333204	-0.029027317	0.003857522	0.001366997
55.000000000	0.004001715	0.001638699	0.995077740	-0.031506177	0.000279645	0.001300037	-0.000231951	-0.000316014
		0.995077740	-0.031506177	0.004007147	0.001616819	-0.000231810	-0.000316061	0.000281003	0.001297762
		0.000279645	0.001300037	-0.000231811	-0.000316061	0.003998979	0.001327752	0.995056954	-0.031661231
		-0.000231952	-0.000316014	0.000281003	0.001297762	0.995056954	-0.031661231	0.004015929	0.001303780
60.000000000	0.004156391	0.001596269	0.994796446	-0.034125715	0.000298910	0.001405787	-0.000241701	-0.000333664
		0.994796446	-0.034125715	0.004161629	0.001571358	-0.000241535	-0.000333720	0.000300393	0.001403167
		0.000298910	0.001405787	-0.000241535	-0.000333720	0.004154312	0.001260103	0.994773736	-0.034293884
		-0.000241701	-0.000333664	0.000300392	0.001403167	0.994773736	-0.034293884	0.004173618	0.001233063
65.000000000	0.004311077	0.001547807	0.994508257	-0.036743988	0.000317676	0.001511635	-0.000251237	-0.000351449
		0.994508257	-0.036743988	0.004316031	0.001519748	-0.000251046	-0.000351515	0.000319291	0.001508670
		0.000317676	0.001511635	-0.000251046	-0.000351515	0.004308752	0.001185234	0.994483554	-0.036925257
		-0.000251237	-0.000351449	0.000319291	0.001508670	0.994483554	-0.036925257	0.004330302	0.001154844
70.000000000	0.004465583	0.001493296	0.994213179	-0.039360977	0.000335942	0.001617579	-0.000260559	-0.000369366
		0.994213179	-0.039360977	0.004470155	0.001461971	-0.000260341	-0.000369442	0.000337698	0.001614268
		0.000335941	0.001617579	-0.000260341	-0.000369442	0.004462029	0.001103147	0.994186412	-0.039555332
		-0.000260560	-0.000369366	0.000337697	0.001614268	0.994186412	-0.039555332	0.004485692	0.001069127
75.000000000	0.004619717	0.001432719	0.993911215	-0.041976665	0.000353707	0.001723618	-0.000269667	-0.000387413
		0.993911215	-0.041976665	0.004623800	0.001398015	-0.000269418	-0.000387500	0.000355612	0.001719960
		0.000353707	0.001723618	-0.000269419	-0.000387500	0.004613870	0.001013855	0.993882317	-0.042184090
		-0.000269667	-0.000387413	0.000355612	0.001719960	0.993882317	-0.042184090	0.004639500	0.000975928
80.000000000	0.004773287	0.001366069	0.993602371	-0.044591033	0.000370972	0.001829749	-0.000278557	-0.000405588
		0.993602371	-0.044591033	0.004776767	0.001327873	-0.000278278	-0.000405687	0.000373033	0.001825744
		0.000370972	0.001829749	-0.000278278	-0.000405687	0.004764004	0.000917379	0.993571272	-0.044811514
		-0.000278557	-0.000405588	0.000373033	0.001825744	0.993571272	-0.044811514	0.004791436	0.000875273
85.000000000	0.004926100	0.001293343	0.993286652	-0.047204063	0.000387736	0.001935971	-0.000287230	-0.000423889
		0.993286652	-0.047204063	0.004928855	0.001251546	-0.000286918	-0.000424001	0.000389962	0.001931619
		0.000387736	0.001935971	-0.000286919	-0.000424001	0.004912158	0.000813749	0.993253283	-0.047437584
		-0.000287230	-0.000423889	0.000389962	0.001931619	0.993253283	-0.047437584	0.004941211	0.000767198
90.000000000	0.005077963	0.001214542	0.992964063	-0.049815737	0.000403999	0.002042282	-0.000295683	-0.000442314
		0.992964063	-0.049815737	0.005079863	0.001169038	-0.000295338	-0.000442439	0.000406398	0.002037582
		0.000403998	0.002042282	-0.000295338	-0.000442439	0.005058062	0.000703005	0.992928354	-0.050062283
		-0.000295683	-0.000442314	0.000406397	0.002037582	0.992928354	-0.050062283	0.005088539	0.000651749
95.000000000	0.005228682	0.001129674	0.992634608	-0.052426037	0.000419760	0.002148680	-0.000303916	-0.000460862
		0.992634608	-0.052426037	0.005229589	0.001080360	-0.000303536	-0.000461000	0.000422339	0.002143632
		0.000419760	0.002148680	-0.000303536	-0.000461000	0.005201444	0.000585197	0.992596492	-0.052685591
		-0.000303916	-0.000460862	0.000422339	0.002143632	0.992596492	-0.052685591	0.005233132	0.000528983
100.000000000	0.005378063	0.001038754	0.992298292	-0.055034946	0.000435019	0.002255164	-0.000311928	-0.000479529
		0.992298292	-0.055034946	0.005377832	0.000985532	-0.000311510	-0.000479681	0.000437787	0.002249767
		0.000435019	0.002255164	-0.000311510	-0.000479681	0.005342036	0.000460382	0.992257699	-0.055307491
		-0.000311928	-0.000479529	0.000437787	0.002249766	0.992257699	-0.055307491	0.005374705	0.000398965
105.000000000	0.005509169	0.000952757	0.991972410	-0.057602258	0.000456615	0.002360055	-0.000320821	-0.000495386
		0.991972410	-0.057602258	0.005506430	0.000894301	-0.000320359	-0.000495554	0.000459519	0.002354245
		0.000456615	0.002360055	-0.000320359	-0.000495554	0.005473867	0.000350061	0.991929163	-0.057887606
		-0.000320821	-0.000495386	0.000459519	0.002354245	0.991929163	-0.057887606	0.005507524	0.000282633
110.000000000	0.005638925	0.000862024	0.991639887	-0.060168248	0.000478327	0.002464923	-0.000329651	-0.000511281
		0.991639887	-0.060168248	0.005633493	0.000798261	-0.000329144	-0.000511465	0.000481370	0.002458700
		0.000478327	0.002464923	-0.000329144	-0.000511465	0.005603370	0.000234133	0.991593920	-0.060466382
		-0.000329651	-0.000511281	0.000481370	0.002458700	0.991593920	-0.060466382	0.005637769	0.000160444
115.000000000	0.005767197	0.000766575	0.991300727	-0.062732900	0.000500157	0.002569768	-0.000338418	-0.000527213
		0.991300727	-0.062732900	0.005758879	0.000697437	-0.000337864	-0.000527414	0.000503341	0.002563130
		0.000500157	0.002569768	-0.000337864	-0.000527414	0.005730363	0.000112649	0.991251974	-0.063043802
		-0.000338418	-0.000527213	0.000503341	0.002563130	0.991251974	-0.063043802	0.005765239	0.000032456
120.000000000	0.005893848	0.000666435	0.990954936	-0.065296196	0.000522103	0.002674588	-0.000347122	-0.000543183
		0.990954936	-0.065296196	0.005882447	0.000591859	-0.000346520	-0.000543402	0.000525432	0.002667536
		0.000522103	0.002674588	-0.000346520	-0.000543402	0.005854663	-0.000014336	0.990903330	-0.065619848
		-0.000347122	-0.000543183	0.000525432	0.002667536	0.990903330	-0.065619848	0.005889740	-0.000101266
125.000000000	0.006018746	0.000561631	0.990602518	-0.067858118	0.000544167	0.002779386	-0.000355763	-0.000559190
		0.990602518	-0.067858118	0.006004056	0.000481560	-0.000355111	-0.000559428	0.000547643	0.002771917
		0.000544167	0.002779386	-0.000355111	-0.000559428	0.005976090	-0.000146760	0.990547992	-0.068194504
		-0.000355763	-0.000559190	0.000547643	0.002771917	0.990547992	-0.068194504	0.006011075	-0.000240653
130.000000000	0.006141755	0.000452194	0.990243478	-0.070418650	0.000566347	0.002884159	-0.000364340	-0.000575234
		0.990243478	-0.070418650	0.006123564	0.000366576	-0.000363636	-0.000575492	0.000569974	0.002876274
		0.000566347	0.002884159	-0.000363636	-0.000575492	0.006094463	-0.000284557	0.990185966	-0.070767751
		-0.000364340	-0.000575234	0.000569974	0.002876274	0.990185966	-0.070767751	0.006129050	-0.000385627
135.000000000	0.006262743	0.000338159	0.989877821	-0.072977775	0.000588644	0.002988909	-0.000372855	-0.000591315
		0.989877821	-0.072977775	0.006240831	0.000246950	-0.000372097	-0.000591594	0.000592424	0.002980605
		0.000588644	0.002988908	-0.000372097	-0.000591594	0.006209604	-0.000427656	0.989817257	-0.073339573
		-0.000372855	-0.000591315	0.000592424	0.002980605	0.989817257	-0.073339573	0.006243475	-0.000536107
140.000000000	0.006381577	0.000219564	0.989505552	-0.075535475	0.000611057	0.003093634	-0.000381305	-0.000607433
		0.989505552	-0.075535475	0.006355720	0.000122724	-0.000380492	-0.000607733	0.000614994	0.003084913
		0.000611057	0.003093634	-0.000380492	-0.000607733	0.006321337	-0.000575980	0.989441870	-0.075909953
		-0.000381305	-0.000607433	0.000614994	0.003084913	0.989441870	-0.075909953	0.006354158	-0.000692004
145.000000000	0.006498123	0.000096451	0.989126675	-0.078091734	0.000633587	0.003198336	-0.000389692	-0.000623587
		0.989126675	-0.078091734	0.006468091	-0.000006052	-0.000388822	-0.000623909	0.000637684	0.003189195
		0.000633587	0.003198336	-0.000388822	-0.000623909	0.006429488	-0.000729446	0.989059809	-0.078478872
		-0.000389692	-0.000623587	0.000637684	0.003189195	0.989059809	-0.078478872	0.006460914	-0.000853225
150.000000000	0.006612252	-0.000031136	0.988741196	-0.080646533	0.000656234	0.003303013	-0.000398016	-0.000639777
		0.988741196	-0.080646533	0.006577808	-0.000139327	-0.000397087	-0.000640122	0.000660494	0.003293452
		0.000656234	0.003303013	-0.000397087	-0.000640122	0.006533883	-0.000887968	0.988671079	-0.081046313
		-0.000398016	-0.000639777	0.000660494	0.003293452	0.988671079	-0.081046313	0.006563556	-0.001019670
155.000000000	0.006704555	-0.000147148	0.988389126	-0.083160187	0.000681005	0.003403827	-0.000405458	-0.000654086
		0.988389126	-0.083160187	0.006665794	-0.000259980	-0.000404474	-0.000654466	0.000685369	0.003393748
		0.000681005	0.003403827	-0.000404474	-0.000654466	0.006624272	-0.001030449	0.988315764	-0.083572259
		-0.000405458	-0.000654086	0.000685369	0.003393747	0.988315764	-0.083572259	0.006654399	-0.001167342
160.000000000	0.006794795	-0.000266349	0.988030666	-0.085672568	0.000706047	0.003504580	-0.000412855	-0.000668421
		0.988030666	-0.085672568	0.006751540	-0.000383808	-0.000411815	-0.000668836	0.000710515	0.003493982
		0.000706047	0.003504580	-0.000411815	-0.000668836	0.006711557	-0.001176732	0.987953997	-0.086096914
		-0.000412855	-0.000668421	0.000710515	0.003493982	0.987953997	-0.086096914	0.006741935	-0.001318945
165.000000000	0.006882891	-0.000388704	0.987665821	-0.088183661	0.000731360	0.003605272	-0.000420207	-0.000682782
		0.987665821	-0.088183661	0.006834961	-0.000510770	-0.000419110	-0.000683232	0.000735933	0.003594155
		0.000731360	0.003605272	-0.000419110	-0.000683232	0.006795625	-0.001326750	0.987585781	-0.088620263
		-0.000420207	-0.000682782	0.000735933	0.003594154	0.987585781	-0.088620263	0.006826046	-0.001474405
170.000000000	0.006968759	-0.000514172	0.987294595	-0.090693448	0.000756943	0.003705902	-0.000427514	-0.000697167
		0.987294595	-0.090693448	0.006915973	-0.000640822	-0.000426357	-0.000697654	0.000761623	0.003694265
		0.000756943	0.003705902	-0.000426357	-0.000697654	0.006876365	-0.001480430	0.987211122	-0.091142289
		-0.000427514	-0.000697167	0.000761623	0.003694265	0.987211122	-0.091142289	0.006906613	-0.001633645
175.000000000	0.007052320	-0.000642714	0.986916993	-0.093201915	0.000782798	0.003806470	-0.000434775	-0.000711578
		0.986916993	-0.093201915	0.006994491	-0.000773918	-0.000433557	-0.000712102	0.000787583	0.003794312
		0.000782798	0.003806470	-0.000433557	-0.000712103	0.006953667	-0.001637701	0.986830023	-0.093662975
		-0.000434775	-0.000711578	0.000787583	0.003794312	0.986830023	-0.093662975	0.006983521	-0.001796585
180.000000000	0.007133492	-0.000774286	0.986533019	-0.095709044	0.000808924	0.003906976	-0.000441991	-0.000726015
		0.986533019	-0.095709044	0.007070434	-0.000910009	-0.000440710	-0.000726577	0.000813815	0.003894296
		0.000808924	0.003906976	-0.000440710	-0.000726577	0.007027423	-0.001798487	0.986442489	-0.096182305
		-0.000441991	-0.000726015	0.000813815	0.003894296	0.986442489	-0.096182305	0.007056657	-0.001963143
185.000000000	0.007212196	-0.000908844	0.986142676	-0.098214820	0.000835320	0.004007417	-0.000449162	-0.000740476
		0.986142676	-0.098214820	0.007143719	-0.001049046	-0.000447817	-0.000741077	0.000840318	0.003994216
		0.000835320	0.004007417	-0.000447817	-0.000741077	0.007097526	-0.001962707	0.986048525	-0.098700263
		-0.000449162	-0.000740476	0.000840318	0.003994216	0.986048525	-0.098700263	0.007125910	-0.002133233
190.000000000	0.007288354	-0.001046341	0.985745971	-0.100719226	0.000861987	0.004107795	-0.000456287	-0.000754962
		0.985745971	-0.100719226	0.007214266	-0.001190976	-0.000454876	-0.000755603	0.000867091	0.004094071
		0.000861987	0.004107795	-0.000454876	-0.000755603	0.007163873	-0.002130281	0.985648134	-0.101216831
		-0.000456287	-0.000754962	0.000867091	0.004094071	0.985648134	-0.101216831	0.007191168	-0.002306764
195.000000000	0.007361886	-0.001186730	0.985342906	-0.103222246	0.000888924	0.004208109	-0.000463367	-0.000769473
		0.985342906	-0.103222246	0.007281995	-0.001335747	-0.000461888	-0.000770154	0.000894136	0.004193861
		0.000888924	0.004208109	-0.000461888	-0.000770154	0.007226359	-0.002301124	0.985241322	-0.103731995
		-0.000463367	-0.000769473	0.000894136	0.004193861	0.985241322	-0.103731995	0.007252325	-0.002483647
200.000000000	0.007432718	-0.001329959	0.984933486	-0.105723864	0.000916131	0.004308358	-0.000470401	-0.000784009
		0.984933486	-0.105723864	0.007346828	-0.001483301	-0.000468852	-0.000784731	0.000921451	0.004293585
		0.000916131	0.004308358	-0.000468852	-0.000784731	0.007284885	-0.002475149	0.984828093	-0.106245737
		-0.000470401	-0.000784009	0.000921451	0.004293585	0.984828093	-0.106245737	0.007309275	-0.002663785
205.000000000	0.007500748	-0.001456221	0.984543514	-0.108211859	0.000944181	0.004406271	-0.000477171	-0.000797827
		0.984543514	-0.108211859	0.007409242	-0.001614163	-0.000475560	-0.000798599	0.000949540	0.004390903
		0.000944181	0.004406271	-0.000475560	-0.000798599	0.007347397	-0.002628561	0.984434333	-0.108745695
		-0.000477171	-0.000797827	0.000949540	0.004390903	0.984434333	-0.108745695	0.007372562	-0.002822753
210.000000000	0.007566653	-0.001584766	0.984147259	-0.110698555	0.000972540	0.004504107	-0.000483903	-0.000811666
		0.984147259	-0.110698555	0.007469352	-0.001747275	-0.000482228	-0.000812488	0.000977937	0.004488143
		0.000972540	0.004504107	-0.000482228	-0.000812488	0.007406835	-0.002784605	0.984034228	-0.111244336
		-0.000483903	-0.000811666	0.000977937	0.004488143	0.984034228	-0.111244336	0.007432591	-0.002984455
215.000000000	0.007630382	-0.001715559	0.983744723	-0.113183936	0.001001208	0.004601865	-0.000490597	-0.000825525
		0.983744723	-0.113183936	0.007527104	-0.001882598	-0.000488856	-0.000826399	0.001006641	0.004585304
		0.001001208	0.004601865	-0.000488856	-0.000826399	0.007463132	-0.002943223	0.983627781	-0.113741643
		-0.000490597	-0.000825525	0.001006641	0.004585304	0.983627781	-0.113741643	0.007489290	-0.003148826
220.000000000	0.007691881	-0.001848563	0.983335912	-0.115667987	0.001030186	0.004699543	-0.000497253	-0.000839404
		0.983335912	-0.115667987	0.007582444	-0.002020090	-0.000495445	-0.000840330	0.001035652	0.004682387
		0.001030186	0.004699543	-0.000495445	-0.000840330	0.007516221	-0.003104351	0.983214998	-0.116237600
		-0.000497253	-0.000839404	0.001035652	0.004682387	0.983214998	-0.116237600	0.007542588	-0.003315800
225.000000000	0.007751100	-0.001983742	0.982920829	-0.118150691	0.001059473	0.004797142	-0.000503871	-0.000853304
		0.982920829	-0.118150691	0.007635320	-0.002159708	-0.000501995	-0.000854282	0.001064970	0.004779389
		0.001059473	0.004797142	-0.000501995	-0.000854282	0.007566034	-0.003267929	0.982795883	-0.118732192
		-0.000503871	-0.000853304	0.001064970	0.004779389	0.982795883	-0.118732192	0.007592417	-0.003485310
230.000000000	0.007807988	-0.002121056	0.982499479	-0.120632033	0.001089068	0.004894660	-0.000510450	-0.000867224
