! freq	real(S11)	imag(S11)	real(S12)	imag(S12)	real(S13)	imag(S13)	
!     	real(S14)	imag(S14)	
!     	real(S21)	imag(S21)	real(S22)	imag(S22)	real(S23)	imag(S23)	
!     	real(S24)	imag(S24)	
!     	real(S31)	imag(S31)	real(S32)	imag(S32)	real(S33)	imag(S33)	
!     	real(S34)	imag(S34)	
!     	real(S41)	imag(S41)	real(S42)	imag(S42)	real(S43)	imag(S43)	
!     	real(S44)	imag(S44)	
!port1: p1  port2: p2  port3: p3  port4: p4
#  MHz  S  RI  R 50
0.000000000	0.000337632	-0.000000000	0.999657469	0.000000000	0.000035313	0.000000000	-0.000037567	0.000000000
		0.999657459	0.000000000	0.000337641	-0.000000000	-0.000037291	0.000000000	0.000035031	-0.000000000
		0.000044158	0.000000000	-0.000025428	0.000000000	0.000338796	0.000000000	0.999657050	-0.000000000
		-0.000025428	0.000000000	0.000044051	0.000000000	0.999658317	0.000000000	0.000337540	-0.000000000
5.000000000	0.000663293	0.000003341	0.999284242	-0.002860826	0.000187870	0.000025974	-0.000073944	-0.000006259
		0.999284260	-0.002860838	0.000666302	0.000002861	-0.000073949	-0.000006254	0.000187654	0.000026042
		0.000201804	0.000028075	-0.000058682	-0.000004329	0.000669367	0.000010720	0.999285735	-0.002834295
		-0.000058686	-0.000004332	0.000201321	0.000028034	0.999285728	-0.002834278	0.000671154	0.000010295
10.000000000	0.000988922	0.000009963	0.998902830	-0.005719515	0.000331231	0.000093372	-0.000109411	-0.000018655
		0.998902876	-0.005719539	0.000994938	0.000008546	-0.000109419	-0.000018642	0.000330745	0.000093601
		0.000349540	0.000099176	-0.000091258	-0.000013536	0.001000225	0.000032045	0.998905758	-0.005666481
		-0.000091263	-0.000013549	0.000348687	0.000099028	0.998905734	-0.005666445	0.001003825	0.000030802
15.000000000	0.001314492	0.000019866	0.998513244	-0.008576044	0.000456870	0.000199737	-0.000143055	-0.000037034
		0.998513317	-0.008576080	0.001323531	0.000017052	-0.000143070	-0.000037009	0.000456008	0.000200194
		0.000478603	0.000210695	-0.000122617	-0.000027534	0.001330487	0.000063966	0.998517757	-0.008496534
		-0.000122622	-0.000027559	0.000477390	0.000210375	0.998517716	-0.008496480	0.001335946	0.000061513
20.000000000	0.001639979	0.000033049	0.998115492	-0.011430388	0.000556951	0.000341108	-0.000174124	-0.000061155
		0.998115593	-0.011430437	0.001652064	0.000028381	-0.000174150	-0.000061115	0.000555564	0.000341824
		0.000580814	0.000358447	-0.000152235	-0.000046179	0.001659898	0.000106468	0.998121741	-0.011324431
		-0.000152237	-0.000046221	0.000579260	0.000357889	0.998121684	-0.011324359	0.001667283	0.000102416
25.000000000	0.001965358	0.000049511	0.997709583	-0.014282526	0.000624436	0.000512135	-0.000201898	-0.000090694
		0.997709712	-0.014282588	0.001980517	0.000042532	-0.000201938	-0.000090636	0.000622346	0.000513088
		0.000648847	0.000536789	-0.000179600	-0.000069278	0.001988204	0.000159530	0.997717720	-0.014150150
		-0.000179595	-0.000069340	0.000646976	0.000535923	0.997717646	-0.014150061	0.001997602	0.000153491
30.000000000	0.002290605	0.000069252	0.997295528	-0.017132433	0.000653321	0.000706227	-0.000225690	-0.000125246
		0.997295684	-0.017132508	0.002308874	0.000059504	-0.000225750	-0.000125168	0.000650332	0.000707338
		0.000676466	0.000738776	-0.000204224	-0.000096588	0.002315152	0.000223127	0.997305701	-0.016973669
		-0.000204207	-0.000096674	0.000674311	0.000737534	0.997305611	-0.016973561	0.002326668	0.000214717
35.000000000	0.002615694	0.000092271	0.996873335	-0.019980087	0.000638835	0.000915746	-0.000244863	-0.000164330
		0.996873519	-0.019980174	0.002637115	0.000079297	-0.000244950	-0.000164232	0.000634749	0.000916867
		0.000658743	0.000956371	-0.000225639	-0.000127819	0.002640488	0.000297227	0.996885696	-0.019794964
		-0.000225604	-0.000127930	0.000656348	0.000954683	0.996885589	-0.019794838	0.002654248	0.000286065
40.000000000	0.002940602	0.000118566	0.996443013	-0.022825464	0.000577607	0.001132217	-0.000258835	-0.000207395
		0.996443225	-0.022825564	0.002965223	0.000101911	-0.000258955	-0.000207277	0.000572243	0.001133132
		0.000592232	0.001180668	-0.000243408	-0.000162635	0.002963961	0.000381794	0.996457712	-0.022614014
		-0.000243350	-0.000162772	0.000589651	0.001178465	0.996457588	-0.022613869	0.002980109	0.000367504
45.000000000	0.003265303	0.000148136	0.996004574	-0.025668541	0.000467803	0.001346581	-0.000267083	-0.000253824
		0.996004813	-0.025668654	0.003293179	0.000127343	-0.000267242	-0.000253687	0.000461012	0.001347004
		0.000475110	0.001402160	-0.000257126	-0.000200657	0.003285318	0.000476786	0.996021759	-0.025430795
		-0.000257039	-0.000200821	0.000472410	0.001399375	0.996021619	-0.025430631	0.003304018	0.000458995
50.000000000	0.003589772	0.000180981	0.995558026	-0.028509294	0.000309213	0.001549455	-0.000269154	-0.000302941
		0.995558292	-0.028509421	0.003620965	0.000155594	-0.000269360	-0.000302789	0.000300900	0.001549039
		0.000307270	0.001611015	-0.000266428	-0.000241467	0.003604309	0.000582154	0.995577846	-0.028245285
		-0.000266303	-0.000241657	0.000304531	0.001607586	0.995577691	-0.028245103	0.003625744	0.000560498
55.000000000	0.003756776	0.000037030	0.995292726	-0.031107465	0.000334765	0.001690040	-0.000278304	-0.000316354
		0.995292987	-0.031107587	0.003795479	0.000009424	-0.000278521	-0.000316176	0.000325198	0.001689653
		0.000331927	0.001748741	-0.000277034	-0.000257160	0.003762630	0.000468754	0.995315048	-0.030818121
		-0.000276892	-0.000257373	0.000328118	0.001745328	0.995314896	-0.030817946	0.003788930	0.000444941
60.000000000	0.003917743	-0.000120155	0.995020647	-0.033704443	0.000359917	0.001830700	-0.000287328	-0.000329863
		0.995020903	-0.033704560	0.003963814	-0.000150609	-0.000287558	-0.000329660	0.000349011	0.001830355
		0.000356339	0.001886511	-0.000287302	-0.000273138	0.003917283	0.000344636	0.995045601	-0.033389786
		-0.000287142	-0.000273375	0.000351324	0.001883137	0.995045453	-0.033389616	0.003948318	0.000318204
65.000000000	0.004071876	-0.000290311	0.994741793	-0.036300211	0.000384669	0.001971435	-0.000296226	-0.000343469
		0.994742044	-0.036300323	0.004125135	-0.000324235	-0.000296469	-0.000343239	0.000372342	0.001971144
		0.000380506	0.002024326	-0.000297227	-0.000289395	0.004067698	0.000209925	0.994769511	-0.035960262
		-0.000297046	-0.000289656	0.000374148	0.002021014	0.994769366	-0.035960098	0.004103310	0.000180418
70.000000000	0.004218389	-0.000473132	0.994456168	-0.038894750	0.000409021	0.002112245	-0.000304998	-0.000357170
		0.994456415	-0.038894858	0.004278619	-0.000511137	-0.000305255	-0.000356912	0.000395189	0.002112018
		0.000404428	0.002162185	-0.000306803	-0.000305926	0.004213311	0.000064771	0.994486782	-0.038529532
		-0.000306600	-0.000306213	0.000396591	0.002158958	0.994486641	-0.038529374	0.004253310	0.000031742
75.000000000	0.004356510	-0.000668269	0.994163778	-0.041488043	0.000432972	0.002253127	-0.000313641	-0.000370964
		0.994164019	-0.041488147	0.004423457	-0.000710952	-0.000313914	-0.000370679	0.000417551	0.002252976
		0.000428105	0.002300089	-0.000316026	-0.000322724	0.004353562	-0.000090649	0.994197419	-0.041097579
		-0.000315798	-0.000323037	0.000418652	0.002296967	0.994197281	-0.041097427	0.004397731	-0.000127637
80.000000000	0.004485482	-0.000875331	0.993864627	-0.044080074	0.000456523	0.002394081	-0.000322157	-0.000384852
		0.993864863	-0.044080172	0.004558856	-0.000923277	-0.000322446	-0.000384538	0.000439430	0.002394017
		0.000451538	0.002438036	-0.000324890	-0.000339784	0.004487900	-0.000256129	0.993901426	-0.043664385
		-0.000324636	-0.000340123	0.000440331	0.002435042	0.993901291	-0.043664239	0.004535991	-0.000297501
85.000000000	0.004604569	-0.001093887	0.993558718	-0.046670823	0.000479672	0.002535107	-0.000330543	-0.000398832
		0.993558949	-0.046670916	0.004684045	-0.001147664	-0.000330851	-0.000398489	0.000460824	0.002535140
		0.000474725	0.002576026	-0.000333390	-0.000357099	0.004615780	-0.000431439	0.993598807	-0.046229933
		-0.000333109	-0.000357465	0.000461628	0.002573181	0.993598675	-0.046229793	0.004667518	-0.000477608
90.000000000	0.004713053	-0.001323465	0.993246058	-0.049260273	0.000502421	0.002676204	-0.000338800	-0.000412904
		0.993246284	-0.049260362	0.004798270	-0.001383624	-0.000339126	-0.000412531	0.000481734	0.002676343
		0.000497667	0.002714060	-0.000341522	-0.000374662	0.004736668	-0.000616321	0.993289567	-0.048794207
		-0.000341211	-0.000375057	0.000482543	0.002711383	0.993289439	-0.048794073	0.004791751	-0.000667684
95.000000000	0.004810240	-0.001563555	0.992926651	-0.051848407	0.000524768	0.002817370	-0.000346926	-0.000427066
		0.992926871	-0.051848491	0.004900805	-0.001630625	-0.000347273	-0.000426663	0.000502159	0.002817625
		0.000520364	0.002852136	-0.000349281	-0.000392469	0.004850039	-0.000810492	0.992973710	-0.051357189
		-0.000348938	-0.000392891	0.000503076	0.002849648	0.992973585	-0.051357061	0.004908136	-0.000867430
100.000000000	0.004895458	-0.001813608	0.992600500	-0.054435207	0.000546715	0.002958605	-0.000354921	-0.000441317
		0.992600716	-0.054435286	0.004990945	-0.001888097	-0.000355289	-0.000440883	0.000522098	0.002958984
		0.000542816	0.002990255	-0.000356662	-0.000410512	0.004955381	-0.001013645	0.992651242	-0.053918862
		-0.000356286	-0.000410962	0.000523226	0.002987975	0.992651120	-0.053918740	0.005016137	-0.001076520
105.000000000	0.005029942	-0.002017096	0.992283123	-0.056983941	0.000572463	0.003099521	-0.000364391	-0.000453392
		0.992283333	-0.056984007	0.005132658	-0.002100515	-0.000364529	-0.000453292	0.000546968	0.003099867
		0.000566787	0.003126469	-0.000365661	-0.000423739	0.005086970	-0.001181176	0.992337899	-0.056442382
		-0.000365263	-0.000424245	0.000547178	0.003129366	0.992337754	-0.056442326	0.005151514	-0.001251343
110.000000000	0.005156937	-0.002228966	0.991959203	-0.059531400	0.000598186	0.003240442	-0.000373853	-0.000465473
		0.991959407	-0.059531453	0.005266434	-0.002321822	-0.000373743	-0.000465721	0.000571839	0.003240750
		0.000590694	0.003262695	-0.000374575	-0.000437032	0.005213058	-0.001356330	0.992018142	-0.058964653
		-0.000374154	-0.000437594	0.000571058	0.003270770	0.992017974	-0.058964664	0.005280998	-0.001434195
115.000000000	0.005276092	-0.002448960	0.991628744	-0.062077568	0.000623883	0.003381368	-0.000383307	-0.000477560
		0.991628941	-0.062077608	0.005391901	-0.002551741	-0.000382933	-0.000478169	0.000596711	0.003381632
		0.000614538	0.003398932	-0.000383403	-0.000450389	0.005333335	-0.001538929	0.991691975	-0.061485660
		-0.000382957	-0.000451008	0.000594868	0.003412186	0.991691783	-0.061485737	0.005404254	-0.001624882
120.000000000	0.005387067	-0.002676808	0.991291751	-0.064622427	0.000649554	0.003522298	-0.000392754	-0.000489654
		0.991291942	-0.064622454	0.005508694	-0.002789982	-0.000392097	-0.000490635	0.000621584	0.003522514
		0.000638318	0.003535180	-0.000392146	-0.000463810	0.005447497	-0.001728787	0.991359403	-0.064005386
		-0.000391673	-0.000464488	0.000618607	0.003553615	0.991359187	-0.064005530	0.005520957	-0.001823197
125.000000000	0.005489530	-0.002912226	0.990948228	-0.067165962	0.000675200	0.003663233	-0.000402192	-0.000501754
		0.990948413	-0.067165976	0.005616460	-0.003036242	-0.000401237	-0.000503121	0.000646457	0.003663396
		0.000662035	0.003671440	-0.000400802	-0.000477295	0.005555244	-0.001925704	0.991020430	-0.066523815
		-0.000400300	-0.000478033	0.000642275	0.003695055	0.991020189	-0.066524025	0.005630786	-0.002028923
130.000000000	0.005583160	-0.003154919	0.990598179	-0.069708155	0.000700820	0.003804173	-0.000411623	-0.000513859
		0.990598359	-0.069708156	0.005714854	-0.003290204	-0.000410351	-0.000515627	0.000671332	0.003804278
		0.000685687	0.003807710	-0.000409372	-0.000490844	0.005656287	-0.002129471	0.990675060	-0.069040931
		-0.000408839	-0.000491642	0.000665873	0.003836508	0.990674795	-0.069041207	0.005733428	-0.002241830
135.000000000	0.005667643	-0.003404583	0.990241611	-0.072248990	0.000726415	0.003945118	-0.000421046	-0.000525971
		0.990241785	-0.072248978	0.005803544	-0.003551541	-0.000419441	-0.000528151	0.000696208	0.003945159
		0.000709276	0.003943993	-0.000417856	-0.000504455	0.005750338	-0.002339869	0.990323298	-0.071556717
		-0.000417290	-0.000505316	0.000689400	0.003977972	0.990323009	-0.071557059	0.005828578	-0.002461679
140.000000000	0.005742676	-0.003660897	0.989878527	-0.074788450	0.000751984	0.004086067	-0.000430462	-0.000538089
		0.989878695	-0.074788425	0.005882207	-0.003819910	-0.000428505	-0.000540694	0.000721085	0.004086041
		0.000732801	0.004080286	-0.000426252	-0.000518129	0.005837119	-0.002556669	0.989965149	-0.074071157
		-0.000425651	-0.000519052	0.000712855	0.004119449	0.989964834	-0.074071565	0.005915937	-0.002688216
145.000000000	0.005807968	-0.003923533	0.989508931	-0.077326518	0.000777527	0.004227021	-0.000439869	-0.000550214
		0.989509094	-0.077326479	0.005950533	-0.004094959	-0.000437544	-0.000553256	0.000745963	0.004226922
		0.000756263	0.004216591	-0.000434561	-0.000531865	0.005916360	-0.002779629	0.989600618	-0.076584236
		-0.000433924	-0.000532852	0.000736240	0.004260937	0.989600276	-0.076584709	0.005995217	-0.002921179
150.000000000	0.005863238	-0.004192152	0.989132830	-0.079863178	0.000803045	0.004367979	-0.000449269	-0.000562344
		0.989132987	-0.079863126	0.006008221	-0.004376324	-0.000446558	-0.000565837	0.000770842	0.004367803
		0.000779661	0.004352906	-0.000442783	-0.000545662	0.005987796	-0.003008501	0.989229707	-0.079095936
		-0.000442106	-0.000546715	0.000759555	0.004402437	0.989229340	-0.079096474	0.006066136	-0.003160293
155.000000000	0.005945357	-0.004433690	0.988786873	-0.082358427	0.000835243	0.004504233	-0.000456070	-0.000571920
		0.988787032	-0.082358363	0.006098210	-0.004624699	-0.000453358	-0.000575539	0.000800276	0.004503924
		0.000810664	0.004487880	-0.000450042	-0.000556215	0.006072718	-0.003211117	0.988889155	-0.081566637
		-0.000449346	-0.000557324	0.000788339	0.004538544	0.988888736	-0.081567194	0.006154945	-0.003368327
160.000000000	0.006020079	-0.004680158	0.988434623	-0.084852436	0.000867862	0.004640398	-0.000462854	-0.000581509
		0.988434785	-0.084852359	0.006180782	-0.004878132	-0.000460140	-0.000585254	0.000830027	0.004639982
		0.000842068	0.004622771	-0.000457273	-0.000566789	0.006151737	-0.003418535	0.988542432	-0.084036127
		-0.000456555	-0.000567956	0.000817433	0.004674590	0.988541963	-0.084036702	0.006237717	-0.003581279
165.000000000	0.006087241	-0.004931354	0.988076083	-0.087345189	0.000900901	0.004776474	-0.000469622	-0.000591110
		0.988076247	-0.087345099	0.006255776	-0.005136427	-0.000466905	-0.000594981	0.000860097	0.004775977
		0.000873870	0.004757579	-0.000464475	-0.000577385	0.006224690	-0.003630596	0.988189544	-0.086504390
		-0.000463734	-0.000578610	0.000846837	0.004810576	0.988189023	-0.086504984	0.006314291	-0.003798987
170.000000000	0.006146684	-0.005187073	0.987711258	-0.089836669	0.000934359	0.004912458	-0.000476372	-0.000600725
		0.987711425	-0.089836567	0.006323036	-0.005399385	-0.000473652	-0.000604722	0.000890485	0.004911907
		0.000906072	0.004892303	-0.000471648	-0.000588002	0.006291419	-0.003847136	0.987830493	-0.088971412
		-0.000470884	-0.000589287	0.000876550	0.004946501	0.987829922	-0.088972023	0.006384507	-0.004021286
175.000000000	0.006198256	-0.005447105	0.987340151	-0.092326861	0.000968237	0.005048351	-0.000483105	-0.000610352
		0.987340321	-0.092326747	0.006382412	-0.005666803	-0.000480381	-0.000614475	0.000921190	0.005047773
		0.000938673	0.005026942	-0.000478792	-0.000598641	0.006351770	-0.004067986	0.987465285	-0.091437176
		-0.000478003	-0.000599985	0.000906573	0.005082365	0.987464662	-0.091437805	0.006448210	-0.004248006
180.000000000	0.006241808	-0.005711236	0.986962768	-0.094815748	0.001002534	0.005184151	-0.000489821	-0.000619991
		0.986962940	-0.094815622	0.006433757	-0.005938472	-0.000487093	-0.000624241	0.000952213	0.005183575
		0.000971672	0.005161495	-0.000485906	-0.000609301	0.006405594	-0.004292974	0.987093923	-0.093901668
		-0.000485092	-0.000610705	0.000936905	0.005218167	0.987093249	-0.093902315	0.006505249	-0.004478972
185.000000000	0.006277197	-0.005979247	0.986579111	-0.097303316	0.001037250	0.005319857	-0.000496520	-0.000629644
		0.986579286	-0.097303178	0.006476930	-0.006214181	-0.000493788	-0.000634020	0.000983553	0.005319310
		0.001005071	0.005295962	-0.000492991	-0.000619982	0.006452745	-0.004521921	0.986716411	-0.096364872
		-0.000492150	-0.000621447	0.000967546	0.005353907	0.986715685	-0.096365536	0.006555479	-0.004714004
190.000000000	0.006304287	-0.006250916	0.986189186	-0.099789549	0.001072385	0.005455469	-0.000503202	-0.000639309
		0.986189364	-0.099789398	0.006511795	-0.006493715	-0.000500465	-0.000643812	0.001015211	0.005454980
		0.001038867	0.005430341	-0.000500047	-0.000630685	0.006493083	-0.004754648	0.986332754	-0.098826773
		-0.000499179	-0.000632211	0.000998496	0.005489583	0.986331976	-0.098827453	0.006598757	-0.004952921
195.000000000	0.006322946	-0.006526018	0.985792997	-0.102274430	0.001107938	0.005590985	-0.000509867	-0.000648986
		0.985793177	-0.102274266	0.006538222	-0.006776854	-0.000507124	-0.000653617	0.001047187	0.005590582
		0.001073062	0.005564632	-0.000507074	-0.000641408	0.006526471	-0.004990967	0.985942955	-0.101287355
		-0.000506177	-0.000642997	0.001029756	0.005625196	0.985942125	-0.101288052	0.006634947	-0.005195534
200.000000000	0.006333049	-0.006804321	0.985390547	-0.104757943	0.001143910	0.005726404	-0.000516514	-0.000658677
		0.985390731	-0.104757768	0.006556085	-0.007063376	-0.000513766	-0.000663434	0.001079479	0.005726118
		0.001107655	0.005698833	-0.000514071	-0.000652153	0.006552779	-0.005230690	0.985547019	-0.103746603
		-0.000513145	-0.000653804	0.001061324	0.005760745	0.985546138	-0.103747316	0.006663916	-0.005441653
205.000000000	0.006374633	-0.007058384	0.985006423	-0.107227170	0.001182689	0.005858285	-0.000521390	-0.000667637
		0.985006613	-0.107226986	0.006609420	-0.007324726	-0.000518731	-0.000672317	0.001113517	0.005858179
		0.001145717	0.005830946	-0.000519648	-0.000661515	0.006602906	-0.005445388	0.985169528	-0.106191785
		-0.000518693	-0.000663225	0.001095136	0.005892447	0.985168606	-0.106192485	0.006720249	-0.005662054
210.000000000	0.006409988	-0.007315189	0.984616112	-0.109695127	0.001222011	0.005990032	-0.000526231	-0.000676619
		0.984616309	-0.109694934	0.006656672	-0.007588937	-0.000523666	-0.000681220	0.001147955	0.005990150
		0.001184325	0.005962927	-0.000525195	-0.000670897	0.006647816	-0.005662987	0.984785971	-0.108635730
		-0.000524210	-0.000672668	0.001129363	0.006024057	0.984785008	-0.108636416	0.006771348	-0.005885444
215.000000000	0.006439041	-0.007574606	0.984219618	-0.112161797	0.001261876	0.006121642	-0.000531039	-0.000685623
		0.984219822	-0.112161596	0.006697771	-0.007855892	-0.000528571	-0.000690143	0.001182794	0.006122031
		0.001223477	0.006094773	-0.000530711	-0.000680300	0.006687431	-0.005883376	0.984396352	-0.111078422
		-0.000529696	-0.000682131	0.001164005	0.006155574	0.984395349	-0.111079094	0.006817134	-0.006111715
220.000000000	0.006461723	-0.007836503	0.983816946	-0.114627166	0.001302282	0.006253113	-0.000535813	-0.000694649
		0.983817157	-0.114626957	0.006732650	-0.008125467	-0.000533445	-0.000699085	0.001218032	0.006253819
		0.001263173	0.006226483	-0.000536198	-0.000689723	0.006721673	-0.006106441	0.984000675	-0.113519847
		-0.000535151	-0.000691615	0.001199062	0.006286997	0.983999632	-0.113520505	0.006857532	-0.006340756
225.000000000	0.006477966	-0.008100748	0.983408099	-0.117091219	0.001343230	0.006384444	-0.000540553	-0.000703697
		0.983408317	-0.117091001	0.006761245	-0.008397541	-0.000538290	-0.000708046	0.001253670	0.006385516
		0.001303413	0.006358056	-0.000541654	-0.000699166	0.006750468	-0.006332065	0.983598944	-0.115959989
		-0.000540575	-0.000701120	0.001234534	0.006418325	0.983597860	-0.115960633	0.006892467	-0.006572453
230.000000000	0.006487706	-0.008367205	0.982993081	-0.119553938	0.001384719	0.006515634	-0.000545259	-0.000712766
