! freq	real(S11)	imag(S11)	real(S12)	imag(S12)	real(S13)	imag(S13)	
!     	real(S14)	imag(S14)	
!     	real(S21)	imag(S21)	real(S22)	imag(S22)	real(S23)	imag(S23)	
!     	real(S24)	imag(S24)	
!     	real(S31)	imag(S31)	real(S32)	imag(S32)	real(S33)	imag(S33)	
!     	real(S34)	imag(S34)	
!     	real(S41)	imag(S41)	real(S42)	imag(S42)	real(S43)	imag(S43)	
!     	real(S44)	imag(S44)	
!port1: p1  port2: p2  port3: p3  port4: p4
#  MHz  S  RI  R 50
0.000000000	0.000956627	-0.000000000	0.999018327	0.000000000	0.000069424	0.000000000	-0.000068416	0.000000000
		0.999018327	0.000000000	0.000956270	-0.000000000	-0.000068415	0.000000000	0.000069471	0.000000000
		0.000069425	-0.000000000	-0.000068414	0.000000000	0.000955735	-0.000000000	0.999016034	0.000000000
		-0.000068415	0.000000000	0.000069472	-0.000000000	0.999016034	0.000000000	0.000955607	0.000000000
5.000000000	0.001187508	0.000047795	0.998780171	-0.002329889	0.000177458	0.000024641	-0.000097810	-0.000010003
		0.998780171	-0.002329889	0.001187912	0.000047035	-0.000097808	-0.000010004	0.000177370	0.000024547
		0.000177458	0.000024642	-0.000097808	-0.000010004	0.001175854	0.000036617	0.998776692	-0.002346397
		-0.000097810	-0.000010003	0.000177370	0.000024547	0.998776692	-0.002346397	0.001176977	0.000035806
10.000000000	0.001415718	0.000114144	0.998536582	-0.004658667	0.000277967	0.000078714	-0.000125571	-0.000025955
		0.998536582	-0.004658667	0.001416965	0.000112385	-0.000125567	-0.000025958	0.000277800	0.000078392
		0.000277968	0.000078714	-0.000125566	-0.000025958	0.001394407	0.000086931	0.998531841	-0.004691670
		-0.000125570	-0.000025955	0.000277800	0.000078392	0.998531841	-0.004691670	0.001396848	0.000085068
15.000000000	0.001640139	0.000198896	0.998287565	-0.006986321	0.000364969	0.000160334	-0.000150796	-0.000047597
		0.998287565	-0.006986321	0.001642345	0.000195905	-0.000150790	-0.000047603	0.000364825	0.000159674
		0.000364969	0.000160334	-0.000150789	-0.000047603	0.001610753	0.000150872	0.998281484	-0.007035805
		-0.000150796	-0.000047597	0.000364826	0.000159674	0.998281484	-0.007035805	0.001614607	0.000147722
20.000000000	0.001859661	0.000301837	0.998033123	-0.009312839	0.000432892	0.000266543	-0.000172625	-0.000074548
		0.998033123	-0.009312839	0.001862972	0.000297391	-0.000172616	-0.000074556	0.000432915	0.000265466
		0.000432892	0.000266543	-0.000172615	-0.000074556	0.001824257	0.000228345	0.998025625	-0.009378789
		-0.000172625	-0.000074548	0.000432915	0.000265466	0.998025625	-0.009378789	0.001829643	0.000223679
25.000000000	0.002073187	0.000422697	0.997773261	-0.011638207	0.000476761	0.000393390	-0.000190250	-0.000106311
		0.997773261	-0.011638207	0.002077782	0.000416584	-0.000190237	-0.000106322	0.000477125	0.000391860
		0.000476761	0.000393390	-0.000190236	-0.000106322	0.002034287	0.000319229	0.997764268	-0.011720611
		-0.000190250	-0.000106311	0.000477125	0.000391860	0.997764268	-0.011720611	0.002041349	0.000312825
30.000000000	0.002279634	0.000561144	0.997507982	-0.013962414	0.000492356	0.000536044	-0.000202933	-0.000142283
		0.997507981	-0.013962414	0.002285721	0.000553168	-0.000202914	-0.000142297	0.000493255	0.000534074
		0.000492356	0.000536044	-0.000202914	-0.000142297	0.002240216	0.000423376	0.997497418	-0.014061256
		-0.000202933	-0.000142283	0.000493255	0.000534074	0.997497418	-0.014061256	0.002249124	0.000415023
35.000000000	0.002477935	0.000716790	0.997237290	-0.016285447	0.000476361	0.000688928	-0.000210017	-0.000181761
		0.997237290	-0.016285447	0.002485751	0.000706773	-0.000209991	-0.000181777	0.000478000	0.000686589
		0.000476361	0.000688928	-0.000209991	-0.000181777	0.002441422	0.000540612	0.997225078	-0.016400712
		-0.000210017	-0.000181761	0.000478000	0.000686589	0.997225078	-0.016400712	0.002452369	0.000530108
40.000000000	0.002667045	0.000889189	0.996961189	-0.018607293	0.000426483	0.000845885	-0.000210939	-0.000223953
		0.996961189	-0.018607293	0.002676856	0.000876973	-0.000210905	-0.000223971	0.000429061	0.000843308
		0.000426483	0.000845885	-0.000210905	-0.000223971	0.002637293	0.000670737	0.996947252	-0.018738966
		-0.000210939	-0.000223953	0.000429061	0.000843308	0.996947253	-0.018738966	0.002650494	0.000657894
45.000000000	0.002845943	0.001077839	0.996679684	-0.020927939	0.000341546	0.001000355	-0.000205243	-0.000267993
		0.996679684	-0.020927939	0.002858040	0.001063288	-0.000205199	-0.000268012	0.000345241	0.000997728
		0.000341546	0.001000354	-0.000205199	-0.000268012	0.002827221	0.000813527	0.996663946	-0.021076005
		-0.000205242	-0.000267993	0.000345241	0.000997728	0.996663946	-0.021076005	0.002842917	0.000798169
50.000000000	0.003013631	0.001282184	0.996392778	-0.023247373	0.000221549	0.001145564	-0.000192585	-0.000312952
		0.996392778	-0.023247373	0.003028331	0.001265185	-0.000192531	-0.000312970	0.000226508	0.001143135
		0.000221550	0.001145563	-0.000192531	-0.000312971	0.003010611	0.000968731	0.996375162	-0.023411817
		-0.000192585	-0.000312952	0.000226509	0.001143135	0.996375162	-0.023411817	0.003029063	0.000950700
55.000000000	0.003134034	0.001251150	0.996186412	-0.025361537	0.000238110	0.001247935	-0.000201931	-0.000333160
		0.996186412	-0.025361537	0.003151467	0.001231993	-0.000201867	-0.000333183	0.000243932	0.001245052
		0.000238111	0.001247934	-0.000201867	-0.000333183	0.003134198	0.000911981	0.996166988	-0.025541327
		-0.000201931	-0.000333160	0.000243932	0.001245052	0.996166988	-0.025541327	0.003156597	0.000891971
60.000000000	0.003254515	0.001215341	0.995975560	-0.027474929	0.000254161	0.001350395	-0.000211012	-0.000353507
		0.995975560	-0.027474929	0.003274634	0.001193771	-0.000210938	-0.000353535	0.000260919	0.001347048
		0.000254161	0.001350395	-0.000210938	-0.000353535	0.003256898	0.000849018	0.995954263	-0.027670054
		-0.000211012	-0.000353508	0.000260919	0.001347048	0.995954263	-0.027670054	0.003283173	0.000826675
65.000000000	0.003374920	0.001174739	0.995760226	-0.029587540	0.000269699	0.001452943	-0.000219827	-0.000373992
		0.995760226	-0.029587540	0.003397665	0.001150501	-0.000219741	-0.000374025	0.000277470	0.001449123
		0.000269699	0.001452942	-0.000219741	-0.000374025	0.003378459	0.000779849	0.995736990	-0.029797986
		-0.000219827	-0.000373992	0.000277470	0.001449123	0.995736990	-0.029797986	0.003408519	0.000754822
70.000000000	0.003495094	0.001129331	0.995540411	-0.031699359	0.000284726	0.001555576	-0.000228374	-0.000394611
		0.995540411	-0.031699359	0.003520391	0.001102171	-0.000228276	-0.000394649	0.000293585	0.001551274
		0.000284727	0.001555576	-0.000228276	-0.000394649	0.003498630	0.000704493	0.995515171	-0.031925115
		-0.000228374	-0.000394611	0.000293585	0.001551273	0.995515171	-0.031925115	0.003532361	0.000676431
75.000000000	0.003614881	0.001079107	0.995316118	-0.033810377	0.000299242	0.001658293	-0.000236652	-0.000415361
		0.995316118	-0.033810377	0.003642645	0.001048773	-0.000236541	-0.000415405	0.000309263	0.001653500
		0.000299242	0.001658293	-0.000236541	-0.000415405	0.003617156	0.000622973	0.995288809	-0.034051430
		-0.000236652	-0.000415361	0.000309263	0.001653500	0.995288809	-0.034051430	0.003654428	0.000591532
80.000000000	0.003734126	0.001024063	0.995087349	-0.035920584	0.000313245	0.001761092	-0.000244660	-0.000436241
		0.995087349	-0.035920584	0.003764258	0.000990304	-0.000244535	-0.000436291	0.000324504	0.001755800
		0.000313245	0.001761092	-0.000244535	-0.000436291	0.003733786	0.000535326	0.995057906	-0.036176923
		-0.000244660	-0.000436241	0.000324504	0.001755800	0.995057906	-0.036176923	0.003774446	0.000500165
85.000000000	0.003852672	0.000964200	0.994854107	-0.038029972	0.000326735	0.001863970	-0.000252396	-0.000457247
		0.994854107	-0.038029972	0.003885059	0.000926766	-0.000252257	-0.000457302	0.000339309	0.001858172
		0.000326735	0.001863970	-0.000252257	-0.000457302	0.003848269	0.000441595	0.994822465	-0.038301582
		-0.000252396	-0.000457247	0.000339309	0.001858172	0.994822465	-0.038301582	0.003892145	0.000402379
90.000000000	0.003970363	0.000899521	0.994616395	-0.040138531	0.000339712	0.001966927	-0.000259858	-0.000478376
		0.994616395	-0.040138531	0.004004881	0.000858167	-0.000259704	-0.000478438	0.000353676	0.001960616
		0.000339712	0.001966927	-0.000259704	-0.000478438	0.003960354	0.000341835	0.994582488	-0.040425400
		-0.000259858	-0.000478376	0.000353676	0.001960616	0.994582488	-0.040425400	0.004007255	0.000298235
95.000000000	0.004087043	0.000830037	0.994374214	-0.042246250	0.000352176	0.002069959	-0.000267047	-0.000499626
		0.994374214	-0.042246250	0.004123553	0.000784520	-0.000266876	-0.000499695	0.000367605	0.002063129
		0.000352177	0.002069959	-0.000266876	-0.000499695	0.004069792	0.000236108	0.994337977	-0.042548365
		-0.000267047	-0.000499626	0.000367605	0.002063129	0.994337977	-0.042548365	0.004119507	0.000187804
100.000000000	0.004202554	0.000755761	0.994127567	-0.044353122	0.000364127	0.002173066	-0.000273959	-0.000520994
		0.994127567	-0.044353122	0.004240905	0.000705842	-0.000273772	-0.000521069	0.000381097	0.002165710
		0.000364127	0.002173066	-0.000273772	-0.000521069	0.004176337	0.000124486	0.994088936	-0.044670469
		-0.000273959	-0.000520994	0.000381097	0.002165710	0.994088936	-0.044670469	0.004228635	0.000071166
105.000000000	0.004304474	0.000686188	0.993890993	-0.046425506	0.000380105	0.002275655	-0.000282153	-0.000539704
		0.993890993	-0.046425506	0.004345295	0.000631834	-0.000281946	-0.000539787	0.000398812	0.002267915
		0.000380105	0.002275655	-0.000281946	-0.000539787	0.004280820	0.000028164	0.993849807	-0.046757927
		-0.000282153	-0.000539704	0.000398812	0.002267915	0.993849807	-0.046757927	0.004336797	-0.000030239
110.000000000	0.004405254	0.000612861	0.993650100	-0.048497094	0.000395977	0.002378262	-0.000290258	-0.000558456
		0.993650100	-0.048497094	0.004448396	0.000553833	-0.000290031	-0.000558547	0.000416503	0.002370125
		0.000395977	0.002378262	-0.000290031	-0.000558547	0.004383026	-0.000072942	0.993606295	-0.048844576
		-0.000290258	-0.000558456	0.000416503	0.002370125	0.993606295	-0.048844576	0.004442467	-0.000136752
115.000000000	0.004504785	0.000535800	0.993404889	-0.050567877	0.000411743	0.002480886	-0.000298276	-0.000577250
		0.993404889	-0.050567877	0.004550087	0.000471861	-0.000298028	-0.000577349	0.000434171	0.002472338
		0.000411743	0.002480886	-0.000298028	-0.000577349	0.004482789	-0.000178779	0.993358403	-0.050930406
		-0.000298276	-0.000577250	0.000434171	0.002472338	0.993358403	-0.050930406	0.004545462	-0.000248308
120.000000000	0.004602957	0.000455025	0.993155364	-0.052637847	0.000427402	0.002583526	-0.000306205	-0.000596085
		0.993155364	-0.052637847	0.004650249	0.000385942	-0.000305935	-0.000596193	0.000451815	0.002574555
		0.000427402	0.002583526	-0.000305935	-0.000596193	0.004579946	-0.000289285	0.993106133	-0.053015409
		-0.000306205	-0.000596085	0.000451815	0.002574555	0.993106133	-0.053015409	0.004645604	-0.000364842
125.000000000	0.004699663	0.000370560	0.992901526	-0.054706995	0.000442955	0.002686184	-0.000314045	-0.000614962
		0.992901526	-0.054706995	0.004748763	0.000296107	-0.000313753	-0.000615078	0.000469436	0.002676777
		0.000442955	0.002686184	-0.000313753	-0.000615078	0.004674333	-0.000404395	0.992849487	-0.055099575
		-0.000314045	-0.000614962	0.000469436	0.002676777	0.992849487	-0.055099575	0.004742713	-0.000486277
130.000000000	0.004794794	0.000282433	0.992643378	-0.056775311	0.000458402	0.002788858	-0.000321797	-0.000633879
		0.992643378	-0.056775311	0.004845510	0.000202387	-0.000321481	-0.000634004	0.000487033	0.002779003
		0.000458402	0.002788858	-0.000321481	-0.000634004	0.004765789	-0.000524040	0.992588468	-0.057182895
		-0.000321797	-0.000633879	0.000487033	0.002779003	0.992588468	-0.057182895	0.004836612	-0.000612536
135.000000000	0.004888244	0.000190674	0.992380922	-0.058842787	0.000473742	0.002891549	-0.000329461	-0.000652836
		0.992380922	-0.058842787	0.004940371	0.000104819	-0.000329120	-0.000652971	0.000504606	0.002881232
		0.000473742	0.002891549	-0.000329120	-0.000652971	0.004854154	-0.000648143	0.992323079	-0.059265360
		-0.000329461	-0.000652836	0.000504606	0.002881232	0.992323079	-0.059265360	0.004927128	-0.000743531
140.000000000	0.004979906	0.000095315	0.992114161	-0.060909413	0.000488976	0.002994257	-0.000337035	-0.000671834
		0.992114161	-0.060909413	0.005033230	0.000003440	-0.000336669	-0.000671979	0.000522156	0.002983466
		0.000488976	0.002994257	-0.000336669	-0.000671978	0.004939271	-0.000776624	0.992053321	-0.061346960
		-0.000337035	-0.000671834	0.000522156	0.002983466	0.992053321	-0.061346960	0.005014089	-0.000879172
145.000000000	0.005069673	-0.000003608	0.991843096	-0.062975181	0.000504104	0.003096981	-0.000344521	-0.000690872
		0.991843096	-0.062975181	0.005123971	-0.000101707	-0.000344129	-0.000691026	0.000539683	0.003085704
		0.000504104	0.003096981	-0.000344129	-0.000691026	0.005020984	-0.000909399	0.991779197	-0.063427687
		-0.000344521	-0.000690872	0.000539683	0.003085704	0.991779197	-0.063427687	0.005097324	-0.001019363
150.000000000	0.005157440	-0.000106057	0.991567731	-0.065040081	0.000519126	0.003199722	-0.000351917	-0.000709949
		0.991567731	-0.065040081	0.005212477	-0.000210578	-0.000351498	-0.000710114	0.000557185	0.003187946
		0.000519126	0.003199722	-0.000351498	-0.000710114	0.005099140	-0.001046377	0.991500709	-0.065507531
		-0.000351917	-0.000709949	0.000557185	0.003187946	0.991500709	-0.065507531	0.005176668	-0.001164001
155.000000000	0.005228852	-0.000198674	0.991319186	-0.067073709	0.000537844	0.003298919	-0.000358856	-0.000727371
		0.991319186	-0.067073709	0.005286563	-0.000307467	-0.000358414	-0.000727553	0.000578137	0.003286406
		0.000537844	0.003298919	-0.000358414	-0.000727553	0.005170949	-0.001167822	0.991249052	-0.067555758
		-0.000358856	-0.000727371	0.000578137	0.003286406	0.991249052	-0.067555758	0.005252823	-0.001289877
160.000000000	0.005298580	-0.000293810	0.991066472	-0.069106588	0.000556717	0.003398089	-0.000365731	-0.000744822
		0.991066472	-0.069106588	0.005358828	-0.000407045	-0.000365264	-0.000745021	0.000599307	0.003384823
		0.000556717	0.003398089	-0.000365264	-0.000745021	0.005239915	-0.001292498	0.990993163	-0.069603223
		-0.000365731	-0.000744822	0.000599307	0.003384823	0.990993163	-0.069603223	0.005325995	-0.001419178
165.000000000	0.005366558	-0.000391434	0.990809588	-0.071138711	0.000575744	0.003497231	-0.000372542	-0.000762301
		0.990809588	-0.071138711	0.005429199	-0.000509279	-0.000372050	-0.000762518	0.000620696	0.003483197
		0.000575744	0.003497231	-0.000372050	-0.000762518	0.005305938	-0.001420339	0.990733046	-0.071649917
		-0.000372542	-0.000762301	0.000620696	0.003483197	0.990733046	-0.071649917	0.005396076	-0.001551837
170.000000000	0.005432720	-0.000491512	0.990548539	-0.073170070	0.000594924	0.003596346	-0.000379289	-0.000779808
		0.990548539	-0.073170070	0.005497605	-0.000614132	-0.000378770	-0.000780043	0.000642302	0.003581528
		0.000594924	0.003596346	-0.000378770	-0.000780043	0.005368921	-0.001551277	0.990468702	-0.073695832
		-0.000379289	-0.000779808	0.000642302	0.003581528	0.990468702	-0.073695832	0.005462965	-0.001687780
175.000000000	0.005497002	-0.000594012	0.990283326	-0.075200655	0.000614259	0.003695433	-0.000385971	-0.000797343
		0.990283326	-0.075200655	0.005563976	-0.000721566	-0.000385426	-0.000797596	0.000664127	0.003679815
		0.000614259	0.003695433	-0.000385426	-0.000797596	0.005428768	-0.001685241	0.990200134	-0.075740958
		-0.000385971	-0.000797343	0.000664127	0.003679815	0.990200134	-0.075740958	0.005526559	-0.001826932
180.000000000	0.005559340	-0.000698898	0.990013950	-0.077230458	0.000633748	0.003794493	-0.000392589	-0.000814905
		0.990013950	-0.077230458	0.005628241	-0.000831541	-0.000392016	-0.000815178	0.000686169	0.003778058
		0.000633748	0.003794493	-0.000392016	-0.000815178	0.005485385	-0.001822157	0.989927344	-0.077785287
		-0.000392589	-0.000814905	0.000686169	0.003778058	0.989927344	-0.077785287	0.005586758	-0.001969217
185.000000000	0.005619669	-0.000806133	0.989740414	-0.079259471	0.000653390	0.003893524	-0.000399142	-0.000832495
		0.989740414	-0.079259471	0.005690331	-0.000944016	-0.000398541	-0.000832787	0.000708430	0.003876257
		0.000653390	0.003893524	-0.000398541	-0.000832787	0.005538677	-0.001961949	0.989650334	-0.079828811
		-0.000399142	-0.000832495	0.000708430	0.003876257	0.989650334	-0.079828811	0.005643464	-0.002114554
190.000000000	0.005677927	-0.000915677	0.989462721	-0.081287685	0.000673187	0.003992527	-0.000405631	-0.000850113
		0.989462721	-0.081287685	0.005750178	-0.001058948	-0.000405000	-0.000850423	0.000730908	0.003974411
		0.000673187	0.003992527	-0.000405000	-0.000850423	0.005588554	-0.002104539	0.989369105	-0.081871521
		-0.000405631	-0.000850113	0.000730908	0.003974411	0.989369105	-0.081871521	0.005696582	-0.002262859
195.000000000	0.005734052	-0.001027492	0.989180872	-0.083315092	0.000693137	0.004091502	-0.000412055	-0.000867758
		0.989180872	-0.083315092	0.005807715	-0.001176293	-0.000411394	-0.000868088	0.000753604	0.004072520
		0.000693137	0.004091502	-0.000411394	-0.000868088	0.005634926	-0.002249846	0.989083662	-0.083913407
		-0.000412055	-0.000867758	0.000753604	0.004072520	0.989083662	-0.083913407	0.005746016	-0.002414047
200.000000000	0.005787982	-0.001141535	0.988894869	-0.085341683	0.000713241	0.004190448	-0.000418414	-0.000885429
		0.988894869	-0.085341683	0.005862875	-0.001296004	-0.000417722	-0.000885779	0.000776518	0.004170584
		0.000713241	0.004190448	-0.000417722	-0.000885779	0.005677707	-0.002397786	0.988794004	-0.085954462
		-0.000418414	-0.000885429	0.000776518	0.004170584	0.988794004	-0.085954462	0.005791674	-0.002568030
205.000000000	0.005840401	-0.001241815	0.988624017	-0.087357841	0.000734765	0.004287101	-0.000424832	-0.000902452
		0.988624017	-0.087357841	0.005918590	-0.001401115	-0.000424113	-0.000902827	0.000800752	0.004266117
		0.000734765	0.004287102	-0.000424113	-0.000902827	0.005727518	-0.002527887	0.988519519	-0.087984932
		-0.000424832	-0.000902452	0.000800752	0.004266117	0.988519519	-0.087984932	0.005847332	-0.002703216
210.000000000	0.005891105	-0.001343891	0.988349054	-0.089373248	0.000756512	0.004383711	-0.000431200	-0.000919496
		0.988349054	-0.089373248	0.005972459	-0.001508169	-0.000430455	-0.000919896	0.000825267	0.004361588
		0.000756512	0.004383711	-0.000430455	-0.000919896	0.005774593	-0.002660194	0.988240865	-0.090014636
		-0.000431200	-0.000919496	0.000825267	0.004361588	0.988240865	-0.090014636	0.005900150	-0.002840768
215.000000000	0.005940052	-0.001447733	0.988069983	-0.091387895	0.000778483	0.004480275	-0.000437519	-0.000936561
		0.988069983	-0.091387895	0.006024434	-0.001617135	-0.000436746	-0.000936986	0.000850062	0.004456996
		0.000778482	0.004480275	-0.000436746	-0.000936986	0.005818873	-0.002794653	0.987958043	-0.092043565
		-0.000437519	-0.000936561	0.000850062	0.004456996	0.987958043	-0.092043565	0.005950068	-0.002980629
220.000000000	0.005987202	-0.001553311	0.987786806	-0.093401774	0.000800676	0.004576795	-0.000443789	-0.000953646
		0.987786806	-0.093401774	0.006074472	-0.001727980	-0.000442987	-0.000954096	0.000875138	0.004552341
		0.000800676	0.004576795	-0.000442987	-0.000954096	0.005860303	-0.002931207	0.987671057	-0.094071710
		-0.000443789	-0.000953646	0.000875138	0.004552341	0.987671057	-0.094071710	0.005997027	-0.003122744
225.000000000	0.006032513	-0.001660596	0.987499525	-0.095414877	0.000823092	0.004673269	-0.000450009	-0.000970751
		0.987499525	-0.095414877	0.006122527	-0.001840670	-0.000449178	-0.000971228	0.000900494	0.004647623
		0.000823092	0.004673269	-0.000449178	-0.000971228	0.005898826	-0.003069800	0.987379907	-0.096099064
		-0.000450009	-0.000970751	0.000900494	0.004647623	0.987379907	-0.096099064	0.006040969	-0.003267052
230.000000000	0.006075946	-0.001769554	0.987208142	-0.097427195	0.000845731	0.004769698	-0.000456179	-0.000987877
