! freq	real(S11)	imag(S11)	real(S12)	imag(S12)	real(S13)	imag(S13)	
!     	real(S14)	imag(S14)	
!     	real(S21)	imag(S21)	real(S22)	imag(S22)	real(S23)	imag(S23)	
!     	real(S24)	imag(S24)	
!     	real(S31)	imag(S31)	real(S32)	imag(S32)	real(S33)	imag(S33)	
!     	real(S34)	imag(S34)	
!     	real(S41)	imag(S41)	real(S42)	imag(S42)	real(S43)	imag(S43)	
!     	real(S44)	imag(S44)	
!port1: p1  port2: p2  port3: p3  port4: p4
#  MHz  S  RI  R 50
0.000000000	0.000632425	-0.000000000	0.999359688	0.000000000	0.000056409	0.000000000	-0.000072157	0.000000000
		0.999359685	-0.000000000	0.000632366	0.000000000	-0.000072481	0.000000000	0.000056581	-0.000000000
		0.000058081	0.000000000	-0.000043465	0.000000000	0.000633305	0.000000000	0.999360136	-0.000000000
		-0.000043464	0.000000000	0.000057781	0.000000000	0.999359417	0.000000000	0.000633993	-0.000000000
5.000000000	0.001246561	-0.000008681	0.998656043	-0.005188878	0.000342774	0.000047042	-0.000133557	-0.000009147
		0.998656052	-0.005188886	0.001238449	-0.000008131	-0.000133521	-0.000009159	0.000342320	0.000046587
		0.000351452	0.000047553	-0.000098383	-0.000006785	0.001255327	0.000012237	0.998657462	-0.005133258
		-0.000098415	-0.000006776	0.000350622	0.000047021	0.998657459	-0.005133248	0.001250221	0.000012644
10.000000000	0.001860577	-0.000025916	0.997925476	-0.010370444	0.000611909	0.000171178	-0.000193595	-0.000026644
		0.997925496	-0.010370460	0.001844426	-0.000024221	-0.000193522	-0.000026674	0.000611457	0.000169569
		0.000627812	0.000173059	-0.000152312	-0.000021110	0.001876751	0.000036593	0.997928799	-0.010259297
		-0.000152380	-0.000021083	0.000626783	0.000171192	0.997928792	-0.010259276	0.001866556	0.000037760
15.000000000	0.002474384	-0.000051702	0.997168042	-0.015544558	0.000848478	0.000367926	-0.000251581	-0.000052348
		0.997168074	-0.015544582	0.002450219	-0.000048268	-0.000251467	-0.000052405	0.000848592	0.000364576
		0.000871700	0.000372110	-0.000204478	-0.000042852	0.002497761	0.000073065	0.997173843	-0.015377980
		-0.000204587	-0.000042799	0.000871090	0.000368226	0.997173832	-0.015377949	0.002482448	0.000075341
20.000000000	0.003087892	-0.000086038	0.996383801	-0.020711082	0.001037979	0.000630044	-0.000306677	-0.000086043
		0.996383843	-0.020711114	0.003055749	-0.000080270	-0.000306515	-0.000086133	0.001039452	0.000624551
		0.001068621	0.000637586	-0.000254118	-0.000071819	0.003118179	0.000121645	0.996392649	-0.020489174
		-0.000254275	-0.000071734	0.001069303	0.000631199	0.996392636	-0.020489132	0.003097707	0.000125382
25.000000000	0.003701012	-0.000128920	0.995572809	-0.025869877	0.001167366	0.000947736	-0.000358068	-0.000127435
		0.995572863	-0.025869917	0.003660939	-0.000120224	-0.000357848	-0.000127562	0.001171172	0.000939940
		0.001205495	0.000959844	-0.000300489	-0.000107749	0.003737828	0.000182325	0.995585277	-0.025592743
		-0.000300703	-0.000107626	0.001208544	0.000950728	0.995585260	-0.025592691	0.003712145	0.000187873
30.000000000	0.004313655	-0.000180345	0.994735127	-0.031020803	0.001225469	0.001308926	-0.000404965	-0.000176155
		0.994735192	-0.031020852	0.004265710	-0.000168128	-0.000404676	-0.000176324	0.001232704	0.001298958
		0.001271059	0.001326986	-0.000342874	-0.000150312	0.004356531	0.000255094	0.994751782	-0.030688555
		-0.000343156	-0.000150147	0.001277690	0.001315226	0.994751761	-0.030688492	0.004325573	0.000262801
35.000000000	0.004925731	-0.000240307	0.993870815	-0.036163724	0.001203361	0.001699594	-0.000446613	-0.000231765
		0.993870891	-0.036163781	0.004869984	-0.000223978	-0.000446244	-0.000231978	0.001215169	0.001687911
		0.001256235	0.001725175	-0.000380588	-0.000199113	0.004974112	0.000339938	0.993892223	-0.035776474
		-0.000380950	-0.000198904	0.001267726	0.001711210	0.993892200	-0.035776402	0.004937802	0.000350152
40.000000000	0.005537152	-0.000308802	0.992979932	-0.041298501	0.001094674	0.002104172	-0.000482300	-0.000293757
		0.992980019	-0.041298567	0.005473682	-0.000287768	-0.000481836	-0.000294015	0.001112168	0.002091579
		0.001154432	0.002139025	-0.000412979	-0.000253696	0.005590394	0.000436843	0.993006660	-0.040856369
		-0.000413435	-0.000253442	0.001172043	0.002123665	0.993006634	-0.040856286	0.005548644	0.000449908
45.000000000	0.006147827	-0.000385822	0.992062540	-0.046424998	0.000895840	0.002505993	-0.000511356	-0.000361560
		0.992062638	-0.046425072	0.006076726	-0.000359494	-0.000510783	-0.000361861	0.000920018	0.002493639
		0.000961794	0.002552017	-0.000439440	-0.000313542	0.006205200	0.000545791	0.992095153	-0.045928106
		-0.000440006	-0.000313245	0.000986673	0.002536451	0.992095123	-0.045928012	0.006157911	0.000562051
50.000000000	0.006757669	-0.000471361	0.991118701	-0.051543077	0.000606261	0.002887764	-0.000533166	-0.000434541
		0.991118810	-0.051543161	0.006679038	-0.000439149	-0.000532469	-0.000434880	0.000637922	0.002877130
		0.000677365	0.002946968	-0.000459410	-0.000378081	0.006818355	0.000666761	0.991157761	-0.050991553
		-0.000460101	-0.000377745	0.000710465	0.002932751	0.991157728	-0.050991449	0.006765414	0.000686557
55.000000000	0.007093486	-0.000812106	0.990513774	-0.056213606	0.000663136	0.003153466	-0.000546807	-0.000440638
		0.990513888	-0.056213682	0.006994732	-0.000778296	-0.000545956	-0.000441035	0.000701383	0.003140822
		0.000732476	0.003208314	-0.000478579	-0.000388067	0.007126924	0.000412771	0.990560305	-0.055607563
		-0.000479419	-0.000387684	0.000772338	0.003192237	0.990560263	-0.055607468	0.007059997	0.000432871
60.000000000	0.007411663	-0.001183474	0.989886846	-0.060879564	0.000720186	0.003419132	-0.000560531	-0.000446597
		0.989886965	-0.060879632	0.007292727	-0.001146764	-0.000559524	-0.000447057	0.000765643	0.003404327
		0.000786819	0.003469827	-0.000497916	-0.000397795	0.007425623	0.000135353	0.989941360	-0.060219101
		-0.000498908	-0.000397357	0.000834058	0.003451758	0.989941308	-0.060219013	0.007344677	0.000156751
65.000000000	0.007710150	-0.001584538	0.989237946	-0.065540847	0.000777413	0.003684760	-0.000574338	-0.000452416
		0.989238071	-0.065540908	0.007571022	-0.001543613	-0.000573172	-0.000452947	0.000830703	0.003667644
		0.000840396	0.003731506	-0.000517419	-0.000407261	0.007713079	-0.000165092	0.989300954	-0.064826065
		-0.000518566	-0.000406761	0.000895627	0.003711316	0.989300892	-0.064825986	0.007618131	-0.000141400
70.000000000	0.007986946	-0.002014253	0.988567105	-0.070197352	0.000834817	0.003950350	-0.000588226	-0.000458097
		0.988567237	-0.070197406	0.007827669	-0.001967786	-0.000586898	-0.000458702	0.000896563	0.003930771
		0.000893206	0.003993349	-0.000537084	-0.000416465	0.007987936	-0.000488090	0.988639116	-0.069428357
		-0.000538391	-0.000415894	0.000957044	0.003970910	0.988639045	-0.069428285	0.007879057	-0.000461108
75.000000000	0.008240104	-0.002471452	0.987874354	-0.074848976	0.000892396	0.004215903	-0.000602195	-0.000463636
		0.987874491	-0.074849022	0.008060774	-0.002418106	-0.000600703	-0.000464324	0.000963222	0.004193707
		0.000945248	0.004255356	-0.000556909	-0.000425404	0.008248861	-0.000833098	0.987955877	-0.074025876
		-0.000558378	-0.000424755	0.001018309	0.004230541	0.987955796	-0.074025812	0.008126169	-0.000801830
80.000000000	0.008467740	-0.002954855	0.987159724	-0.079495615	0.000950152	0.004481417	-0.000616243	-0.000469035
		0.987159867	-0.079495654	0.008268510	-0.002893281	-0.000614585	-0.000469810	0.001030679	0.004456449
		0.000996522	0.004517523	-0.000576891	-0.000434077	0.008494541	-0.001199501	0.987251266	-0.078618523
		-0.000578526	-0.000433341	0.001079423	0.004490208	0.987251175	-0.078618467	0.008358208	-0.001162957
85.000000000	0.008668037	-0.003463065	0.986423246	-0.084137167	0.001008084	0.004746894	-0.000630368	-0.000474292
		0.986423395	-0.084137199	0.008449117	-0.003391911	-0.000628542	-0.000475160	0.001098935	0.004718996
		0.001047028	0.004779849	-0.000597027	-0.000442482	0.008723693	-0.001586614	0.986525314	-0.083206198
		-0.000598831	-0.000441651	0.001140384	0.004749910	0.986525213	-0.083206150	0.008573941	-0.001543811
90.000000000	0.008839256	-0.003994581	0.985664953	-0.088773529	0.001066193	0.005012333	-0.000644571	-0.000479407
		0.985665109	-0.088773553	0.008600912	-0.003912483	-0.000642574	-0.000480374	0.001167988	0.004981345
		0.001096765	0.005042333	-0.000617315	-0.000450617	0.008935066	-0.001993685	0.985778052	-0.087788803
		-0.000619291	-0.000449683	0.001201194	0.005009649	0.985777941	-0.087788762	0.008772168	-0.001943649
95.000000000	0.008979735	-0.004547793	0.984884878	-0.093404598	0.001124477	0.005277734	-0.000658849	-0.000484378
		0.984885039	-0.093404615	0.008722295	-0.004453384	-0.000656680	-0.000485451	0.001237838	0.005243495
		0.001145733	0.005304973	-0.000637751	-0.000458480	0.009127441	-0.002419898	0.985009512	-0.092366239
		-0.000639901	-0.000457434	0.001261852	0.005269424	0.985009391	-0.092366205	0.008951720	-0.002361664
100.000000000	0.009087903	-0.005120994	0.984083053	-0.098030273	0.001182938	0.005543097	-0.000673201	-0.000489206
		0.984083220	-0.098030283	0.008811753	-0.005012903	-0.000670858	-0.000490390	0.001308486	0.005505445
		0.001193932	0.005567767	-0.000658334	-0.000466069	0.009299637	-0.002864366	0.984219726	-0.096938406
		-0.000660660	-0.000464904	0.001322358	0.005529234	0.984219594	-0.096938380	0.009111466	-0.002796984
105.000000000	0.009288436	-0.005592823	0.983334363	-0.102564109	0.001248533	0.005794956	-0.000682610	-0.000495265
		0.983334437	-0.102564078	0.008978120	-0.005469561	-0.000680155	-0.000496746	0.001387170	0.005754015
		0.001259169	0.005819957	-0.000669297	-0.000470718	0.009497882	-0.003233620	0.983484368	-0.101418974
		-0.000671878	-0.000469454	0.001402293	0.005778399	0.983484211	-0.101418950	0.009286443	-0.003159812
110.000000000	0.009469025	-0.006080298	0.982564792	-0.107093109	0.001315116	0.006046580	-0.000692028	-0.000501311
		0.982564774	-0.107093036	0.009124759	-0.005940496	-0.000689456	-0.000503095	0.001467470	0.006002133
		0.001325333	0.006071926	-0.000680296	-0.000475303	0.009682217	-0.003616899	0.982728620	-0.105894838
		-0.000683133	-0.000473933	0.001483901	0.006027091	0.982728437	-0.105894816	0.009447592	-0.003535639
115.000000000	0.009628940	-0.006582652	0.981774369	-0.111617178	0.001382688	0.006297965	-0.000701455	-0.000507343
		0.981774258	-0.111617062	0.009250970	-0.006424926	-0.000698763	-0.000509435	0.001549383	0.006249790
		0.001392425	0.006323671	-0.000691329	-0.000479825	0.009851991	-0.004013696	0.981952508	-0.110365906
		-0.000694426	-0.000478343	0.001567178	0.006275301	0.981952300	-0.110365886	0.009594289	-0.003923954
120.000000000	0.009767477	-0.007099091	0.980963123	-0.116136219	0.001451246	0.006549107	-0.000710891	-0.000513360
		0.980962920	-0.116136060	0.009356083	-0.006922043	-0.000708076	-0.000515769	0.001632907	0.006496980
		0.001460444	0.006575190	-0.000702397	-0.000484282	0.010006572	-0.004423480	0.981156063	-0.114832085
		-0.000705755	-0.000482683	0.001652124	0.006523020	0.981155829	-0.114832067	0.009725933	-0.004324222
125.000000000	0.009883963	-0.007628792	0.980131083	-0.120650137	0.001520792	0.006800005	-0.000720337	-0.000519365
		0.980130789	-0.120649932	0.009439457	-0.007431009	-0.000717394	-0.000522094	0.001718039	0.006743693
		0.001529388	0.006826480	-0.000713499	-0.000488676	0.010145347	-0.004845695	0.980339311	-0.119293283
		-0.000717122	-0.000486952	0.001738734	0.006770241	0.980339051	-0.119293266	0.009841939	-0.004735881
130.000000000	0.009977756	-0.008170904	0.979278280	-0.125158835	0.001591323	0.007050655	-0.000729793	-0.000525355
		0.979277895	-0.125158585	0.009500483	-0.007950960	-0.000726717	-0.000528412	0.001804778	0.006989922
		0.001599259	0.007077538	-0.000724636	-0.000493005	0.010267724	-0.005279758	0.979502281	-0.123749408
		-0.000728524	-0.000491150	0.001827008	0.007016954	0.979501996	-0.123749392	0.009941743	-0.005158345
135.000000000	0.010048241	-0.008724552	0.978404745	-0.129662219	0.001662840	0.007301054	-0.000739257	-0.000531331
		0.978404269	-0.129661923	0.009538584	-0.008481008	-0.000736046	-0.000534721	0.001893122	0.007235659
		0.001670054	0.007328363	-0.000735805	-0.000497269	0.010373128	-0.005725063	0.978645004	-0.128200366
		-0.000739962	-0.000495278	0.001916942	0.007263152	0.978644693	-0.128200351	0.010024803	-0.005591004
140.000000000	0.010094838	-0.009288835	0.977510507	-0.134160192	0.001735341	0.007551199	-0.000748731	-0.000537294
		0.977509941	-0.134159849	0.009553218	-0.009020237	-0.000745380	-0.000541024	0.001983067	0.007480897
		0.001741773	0.007578951	-0.000747009	-0.000501469	0.010461010	-0.006180983	0.977767509	-0.132646067
		-0.000751436	-0.000499335	0.002008534	0.007508827	0.977767172	-0.132646052	0.010090600	-0.006033228
145.000000000	0.010117000	-0.009862828	0.976595599	-0.138652661	0.001808826	0.007801089	-0.000758214	-0.000543243
		0.976594943	-0.138652270	0.009543875	-0.009567711	-0.000754720	-0.000547318	0.002074612	0.007725628
		0.001814416	0.007829300	-0.000758245	-0.000505604	0.010530841	-0.006646864	0.976869826	-0.137086418
		-0.000762945	-0.000503321	0.002101782	0.007753970	0.976869463	-0.137086404	0.010138635	-0.006484360
150.000000000	0.010114211	-0.010445584	0.975660052	-0.143139529	0.001883294	0.008050718	-0.000767707	-0.000549178
		0.975659307	-0.143139090	0.009510083	-0.010122470	-0.000764065	-0.000553604	0.002167754	0.007969844
		0.001887982	0.008079408	-0.000769514	-0.000509674	0.010582115	-0.007122033	0.975951985	-0.141521328
		-0.000774489	-0.000507236	0.002196683	0.007998572	0.975951597	-0.141521314	0.010168437	-0.006943728
155.000000000	0.010229527	-0.010971831	0.974747489	-0.147590216	0.001963785	0.008293730	-0.000774608	-0.000552710
		0.974746786	-0.147589736	0.009592102	-0.010634981	-0.000770694	-0.000557232	0.002265616	0.008205438
		0.001969171	0.008322483	-0.000774695	-0.000513263	0.010713186	-0.007539127	0.975058543	-0.145920552
		-0.000779968	-0.000510627	0.002295236	0.008233288	0.975058155	-0.145920521	0.010274385	-0.007351717
160.000000000	0.010328466	-0.011506036	0.973814631	-0.152035537	0.002045602	0.008536363	-0.000781518	-0.000556226
		0.973813969	-0.152035016	0.009657094	-0.011154878	-0.000777330	-0.000560847	0.002365314	0.008440397
		0.002051723	0.008565167	-0.000779874	-0.000516854	0.010831351	-0.007964685	0.974145278	-0.150314577
		-0.000785449	-0.000514016	0.002395626	0.008467361	0.974144890	-0.150314530	0.010367201	-0.007767608
165.000000000	0.010410769	-0.012047766	0.972861506	-0.156475398	0.002128744	0.008778613	-0.000788438	-0.000559727
		0.972860887	-0.156474838	0.009704796	-0.011681679	-0.000783974	-0.000564449	0.002466843	0.008674708
		0.002135638	0.008807456	-0.000785053	-0.000520446	0.010936318	-0.008398347	0.973212218	-0.154703316
		-0.000790931	-0.000517403	0.002497849	0.008700779	0.973211830	-0.154703253	0.010446591	-0.008191018
170.000000000	0.010476191	-0.012596581	0.971888145	-0.160909708	0.002213208	0.009020474	-0.000795368	-0.000563211
		0.971887569	-0.160909108	0.009734956	-0.012214891	-0.000790626	-0.000568039	0.002570201	0.008908362
		0.002220914	0.009049342	-0.000790230	-0.000524039	0.011027800	-0.008839745	0.972259392	-0.159086678
		-0.000796413	-0.000520788	0.002601902	0.008933533	0.972259005	-0.159086599	0.010512271	-0.008621556
175.000000000	0.010524496	-0.013152036	0.970894581	-0.165338374	0.002298995	0.009261942	-0.000802307	-0.000566680
		0.970894047	-0.165337736	0.009747336	-0.012754019	-0.000797287	-0.000571616	0.002675383	0.009141348
		0.002307549	0.009290821	-0.000795407	-0.000527634	0.011105524	-0.009288504	0.971286830	-0.163464575
		-0.000801898	-0.000524171	0.002707782	0.009165612	0.971286443	-0.163464480	0.010563969	-0.009058822
180.000000000	0.010555458	-0.013713677	0.969880843	-0.169761305	0.002386101	0.009503010	-0.000809255	-0.000570133
		0.969880353	-0.169760628	0.009741711	-0.013298556	-0.000803955	-0.000575180	0.002782386	0.009373656
		0.002395542	0.009531887	-0.000800582	-0.000531231	0.011169224	-0.009744240	0.970294563	-0.167836919
		-0.000807383	-0.000527553	0.002815485	0.009397005	0.970294176	-0.167836807	0.010601423	-0.009502406
185.000000000	0.010568864	-0.014281046	0.968846963	-0.174178408	0.002474526	0.009743673	-0.000816213	-0.000573570
		0.968846517	-0.174177693	0.009717869	-0.013847992	-0.000810631	-0.000578731	0.002891206	0.009605275
		0.002484890	0.009772533	-0.000805757	-0.000534829	0.011218646	-0.010206561	0.969282619	-0.172203619
		-0.000812870	-0.000530932	0.002925006	0.009627701	0.969282234	-0.172203491	0.010624385	-0.009951891
190.000000000	0.010564510	-0.014853678	0.967792974	-0.178589593	0.002564269	0.009983926	-0.000823180	-0.000576991
		0.967792572	-0.178588839	0.009675611	-0.014401808	-0.000817315	-0.000582270	0.003001840	0.009836194
		0.002575594	0.010012755	-0.000810930	-0.000538428	0.011253545	-0.010675067	0.968251031	-0.176564589
		-0.000818358	-0.000534310	0.003036342	0.009857690	0.968250647	-0.176564445	0.010632613	-0.010406853
195.000000000	0.010542206	-0.015431103	0.966718908	-0.182994766	0.002655326	0.010223763	-0.000830157	-0.000580396
		0.966718551	-0.182993975	0.009614753	-0.014959482	-0.000824007	-0.000585795	0.003114284	0.010066403
		0.002667649	0.010252547	-0.000816103	-0.000542029	0.011273687	-0.011149352	0.967199830	-0.180919739
		-0.000823847	-0.000537686	0.003149490	0.010086962	0.967199447	-0.180919579	0.010625883	-0.010866858
200.000000000	0.010501772	-0.016012846	0.965624799	-0.187393838	0.002747698	0.010463179	-0.000837143	-0.000583785
		0.965624486	-0.187393010	0.009535124	-0.015520483	-0.000830706	-0.000589308	0.003228534	0.010295892
		0.002761056	0.010491903	-0.000821274	-0.000545631	0.011278848	-0.011629002	0.966129046	-0.185268982
		-0.000829337	-0.000541059	0.003264446	0.010315505	0.966128664	-0.185268805	0.010603979	-0.011331468
205.000000000	0.010537233	-0.016570691	0.964531129	-0.191762874	0.002844564	0.010696316	-0.000840373	-0.000586578
		0.964530863	-0.191762075	0.009526689	-0.016059868	-0.000833533	-0.000592291	0.003346457	0.010518535
		0.002858334	0.010724155	-0.000823215	-0.000550172	0.011345122	-0.012079342	0.965060042	-0.189588849
		-0.000831609	-0.000545325	0.003382037	0.010536969	0.965059676	-0.189588665	0.010638779	-0.011768983
210.000000000	0.010559025	-0.017132623	0.963417698	-0.196125828	0.002942908	0.010928948	-0.000843600	-0.000589374
		0.963417479	-0.196125058	0.009503763	-0.016602629	-0.000836356	-0.000595278	0.003466286	0.010740371
		0.002957102	0.010955896	-0.000825136	-0.000554728	0.011399781	-0.012534734	0.963971729	-0.193902840
		-0.000833866	-0.000549604	0.003501495	0.010757640	0.963971379	-0.193902648	0.010661576	-0.012210990
215.000000000	0.010567039	-0.017698365	0.962284538	-0.200482610	0.003042729	0.011161069	-0.000846825	-0.000592173
		0.962284366	-0.200481869	0.009466242	-0.017148445	-0.000839175	-0.000598271	0.003588016	0.010961388
		0.003057358	0.011187119	-0.000827039	-0.000559299	0.011442680	-0.012994922	0.962864139	-0.198210867
		-0.000836107	-0.000553897	0.003622815	0.010977505	0.962863804	-0.198210667	0.010672226	-0.012657205
220.000000000	0.010561176	-0.018267642	0.961131684	-0.204833130	0.003144023	0.011392671	-0.000850047	-0.000594974
		0.961131558	-0.204832419	0.009414026	-0.017696992	-0.000841990	-0.000601268	0.003711643	0.011181575
		0.003159100	0.011417816	-0.000828923	-0.000563884	0.011473682	-0.013459644	0.961737303	-0.202512845
		-0.000838333	-0.000558203	0.003745992	0.011196553	0.961736984	-0.202512638	0.010670592	-0.013107339
225.000000000	0.010541338	-0.018840173	0.959959168	-0.209177299	0.003246789	0.011623749	-0.000853268	-0.000597779
		0.959959089	-0.209176619	0.009347023	-0.018247947	-0.000844800	-0.000604269	0.003837163	0.011400919
		0.003262325	0.011647981	-0.000830789	-0.000568484	0.011492652	-0.013928635	0.960591253	-0.206808688
		-0.000840542	-0.000562523	0.003871021	0.011414773	0.960590950	-0.206808473	0.010656544	-0.013561100
