! freq	real(S11)	imag(S11)	real(S12)	imag(S12)	real(S13)	imag(S13)	
!     	real(S14)	imag(S14)	
!     	real(S21)	imag(S21)	real(S22)	imag(S22)	real(S23)	imag(S23)	
!     	real(S24)	imag(S24)	
!     	real(S31)	imag(S31)	real(S32)	imag(S32)	real(S33)	imag(S33)	
!     	real(S34)	imag(S34)	
!     	real(S41)	imag(S41)	real(S42)	imag(S42)	real(S43)	imag(S43)	
!     	real(S44)	imag(S44)	
!port1: p1  port2: p2  port3: p3  port4: p4
#  MHz  S  RI  R 50
0.000000000	0.001390076	-0.000000000	0.998569369	0.000000000	0.000094713	0.000000000	-0.000093622	0.000000000
		0.998569369	0.000000000	0.001390635	0.000000000	-0.000093623	0.000000000	0.000094728	0.000000000
		0.000094711	0.000000000	-0.000093625	0.000000000	0.001394652	-0.000000000	0.998565143	0.000000000
		-0.000093624	0.000000000	0.000094727	0.000000000	0.998565143	0.000000000	0.001395207	-0.000000000
5.000000000	0.001715718	0.000057563	0.998222895	-0.003294788	0.000213220	0.000028833	-0.000122501	-0.000010870
		0.998222895	-0.003294788	0.001716133	0.000056723	-0.000122499	-0.000010869	0.000213044	0.000028849
		0.000213219	0.000028833	-0.000122501	-0.000010869	0.001722318	0.000059489	0.998218382	-0.003300434
		-0.000122503	-0.000010870	0.000213043	0.000028849	0.998218382	-0.003300434	0.001722741	0.000058634
10.000000000	0.002038695	0.000136953	0.997865554	-0.006587289	0.000323556	0.000089137	-0.000149962	-0.000026824
		0.997865554	-0.006587289	0.002039046	0.000134940	-0.000149958	-0.000026821	0.000323175	0.000089161
		0.000323554	0.000089137	-0.000149960	-0.000026821	0.002047148	0.000141585	0.997860717	-0.006598574
		-0.000149964	-0.000026824	0.000323174	0.000089160	0.997860717	-0.006598574	0.002047520	0.000139537
15.000000000	0.002357912	0.000238043	0.997497356	-0.009877467	0.000419480	0.000178956	-0.000175335	-0.000047677
		0.997497357	-0.009877467	0.002358309	0.000234531	-0.000175330	-0.000047672	0.000418877	0.000178972
		0.000419479	0.000178955	-0.000175331	-0.000047672	0.002367972	0.000246152	0.997492158	-0.009894386
		-0.000175337	-0.000047677	0.000418876	0.000178972	0.997492158	-0.009894386	0.002368409	0.000242578
20.000000000	0.002672276	0.000360657	0.997118315	-0.013165286	0.000495170	0.000295239	-0.000197975	-0.000073164
		0.997118315	-0.013165286	0.002672863	0.000355326	-0.000197968	-0.000073156	0.000494320	0.000295226
		0.000495169	0.000295239	-0.000197969	-0.000073157	0.002683627	0.000372995	0.997112717	-0.013187832
		-0.000197976	-0.000073165	0.000494319	0.000295226	0.997112717	-0.013187832	0.002684281	0.000367572
25.000000000	0.002980705	0.000504573	0.996728439	-0.016450711	0.000545395	0.000433924	-0.000217265	-0.000102947
		0.996728440	-0.016450711	0.002981657	0.000497114	-0.000217258	-0.000102936	0.000544272	0.000433850
		0.000545394	0.000433923	-0.000217259	-0.000102937	0.002992960	0.000521871	0.996722406	-0.016478878
		-0.000217266	-0.000102948	0.000544271	0.000433850	0.996722406	-0.016478878	0.002994013	0.000514284
30.000000000	0.003282127	0.000669517	0.996327743	-0.019733705	0.000565683	0.000590043	-0.000232633	-0.000136615
		0.996327743	-0.019733705	0.003283650	0.000659633	-0.000232626	-0.000136599	0.000564261	0.000589864
		0.000565682	0.000590042	-0.000232627	-0.000136600	0.003294827	0.000692480	0.996321236	-0.019767487
		-0.000232634	-0.000136615	0.000564260	0.000589864	0.996321236	-0.019767487	0.003296496	0.000682428
35.000000000	0.003575479	0.000855169	0.995916237	-0.023014234	0.000552463	0.000757859	-0.000243552	-0.000173688
		0.995916237	-0.023014234	0.003577811	0.000842576	-0.000243546	-0.000173668	0.000550720	0.000757519
		0.000552463	0.000757858	-0.000243546	-0.000173669	0.003588100	0.000884470	0.995909219	-0.023053623
		-0.000243553	-0.000173689	0.000550720	0.000757519	0.995909219	-0.023053623	0.003590633	0.000871669
40.000000000	0.003859714	0.001061162	0.995493933	-0.026292261	0.000503191	0.000931020	-0.000249552	-0.000213627
		0.995493933	-0.026292261	0.003863122	0.001045593	-0.000249547	-0.000213603	0.000501112	0.000930450
		0.000503191	0.000931019	-0.000249548	-0.000213604	0.003871664	0.001097440	0.995486368	-0.026337251
		-0.000249552	-0.000213628	0.000501111	0.000930450	0.995486368	-0.026337251	0.003875342	0.001081621
45.000000000	0.004133802	0.001287082	0.995060844	-0.029567752	0.000416442	0.001102735	-0.000250223	-0.000255837
		0.995060844	-0.029567752	0.004138581	0.001268288	-0.000250221	-0.000255808	0.000414022	0.001101855
		0.000416442	0.001102734	-0.000250221	-0.000255809	0.004144426	0.001330934	0.995052694	-0.029618335
		-0.000250223	-0.000255838	0.000414022	0.001101854	0.995052694	-0.029618335	0.004149557	0.001311848
50.000000000	0.004396730	0.001532467	0.994616980	-0.032840669	0.000291980	0.001265962	-0.000245225	-0.000299674
		0.994616980	-0.032840669	0.004403203	0.001510219	-0.000245227	-0.000299640	0.000289230	0.001264680
		0.000291980	0.001265962	-0.000245228	-0.000299640	0.004405309	0.001584447	0.994608210	-0.032896840
		-0.000245225	-0.000299674	0.000289230	0.001264680	0.994608210	-0.032896840	0.004412232	0.001561868
55.000000000	0.004576866	0.001458421	0.994290832	-0.035816958	0.000314637	0.001377339	-0.000255753	-0.000316228
		0.994290832	-0.035816958	0.004583391	0.001432834	-0.000255755	-0.000316191	0.000311212	0.001375857
		0.000314637	0.001377339	-0.000255755	-0.000316192	0.004584818	0.001514408	0.994281808	-0.035878586
		-0.000255753	-0.000316228	0.000311212	0.001375857	0.994281808	-0.035878586	0.004591866	0.001488445
60.000000000	0.004756098	0.001375762	0.993955779	-0.038791584	0.000336830	0.001488816	-0.000266099	-0.000332913
		0.993955779	-0.038791584	0.004762540	0.001346672	-0.000266099	-0.000332873	0.000332666	0.001487144
		0.000336830	0.001488816	-0.000266100	-0.000332873	0.004763588	0.001436011	0.993946468	-0.038858667
		-0.000266099	-0.000332913	0.000332666	0.001487144	0.993946468	-0.038858667	0.004770630	0.001406495
65.000000000	0.004934094	0.001284486	0.993611830	-0.041764523	0.000358558	0.001600392	-0.000276260	-0.000349727
		0.993611830	-0.041764523	0.004940304	0.001251734	-0.000276261	-0.000349684	0.000353593	0.001598541
		0.000358558	0.001600392	-0.000276261	-0.000349684	0.004941305	0.001349247	0.993602199	-0.041837056
		-0.000276261	-0.000349727	0.000353592	0.001598541	0.993602199	-0.041837056	0.004948196	0.001316015
70.000000000	0.005110518	0.001184603	0.993258990	-0.044735747	0.000379821	0.001712064	-0.000286237	-0.000366668
		0.993258990	-0.044735747	0.005116335	0.001148034	-0.000286237	-0.000366621	0.000373990	0.001710045
		0.000379821	0.001712064	-0.000286237	-0.000366621	0.005117650	0.001254122	0.993249007	-0.044813726
		-0.000286237	-0.000366668	0.000373990	0.001710045	0.993249007	-0.044813726	0.005124235	0.001217013
75.000000000	0.005285034	0.001076135	0.992897268	-0.047705229	0.000400619	0.001823832	-0.000296028	-0.000383735
		0.992897268	-0.047705229	0.005290286	0.001035599	-0.000296028	-0.000383685	0.000393859	0.001821655
		0.000400619	0.001823832	-0.000296028	-0.000383685	0.005292307	0.001150650	0.992886899	-0.047788651
		-0.000296029	-0.000383735	0.000393859	0.001821655	0.992886899	-0.047788651	0.005298417	0.001109508
80.000000000	0.005457310	0.000959114	0.992526670	-0.050672943	0.000420951	0.001935693	-0.000305632	-0.000400925
		0.992526670	-0.050672943	0.005461811	0.000914467	-0.000305631	-0.000400872	0.000413199	0.001933368
		0.000420951	0.001935693	-0.000305631	-0.000400872	0.005464958	0.001038856	0.992515884	-0.050761804
		-0.000305633	-0.000400925	0.000413198	0.001933368	0.992515884	-0.050761804	0.005470413	0.000993532
85.000000000	0.005627009	0.000833586	0.992147203	-0.053638863	0.000440817	0.002047647	-0.000315048	-0.000418239
		0.992147203	-0.053638863	0.005630561	0.000784690	-0.000315047	-0.000418182	0.000432008	0.002045183
		0.000440817	0.002047647	-0.000315047	-0.000418182	0.005635288	0.000918777	0.992135967	-0.053733158
		-0.000315048	-0.000418239	0.000432008	0.002045183	0.992135967	-0.053733158	0.005639893	0.000869128
90.000000000	0.005793799	0.000699608	0.991758876	-0.056602963	0.000460217	0.002159692	-0.000324275	-0.000435673
		0.991758876	-0.056602963	0.005796192	0.000646333	-0.000324273	-0.000435612	0.000450288	0.002157098
		0.000460217	0.002159692	-0.000324273	-0.000435612	0.005802979	0.000790461	0.991747157	-0.056702688
		-0.000324275	-0.000435673	0.000450288	0.002157098	0.991747157	-0.056702688	0.005806529	0.000736349
95.000000000	0.005957347	0.000557247	0.991361696	-0.059565214	0.000479150	0.002271827	-0.000333312	-0.000453226
		0.991361696	-0.059565214	0.005958359	0.000499471	-0.000333309	-0.000453162	0.000468038	0.002269111
		0.000479150	0.002271827	-0.000333309	-0.000453162	0.005967717	0.000653966	0.991349462	-0.059670365
		-0.000333312	-0.000453226	0.000468038	0.002269111	0.991349462	-0.059670365	0.005969994	0.000595263
100.000000000	0.006117324	0.000406584	0.990955671	-0.062525592	0.000497616	0.002384049	-0.000342157	-0.000470897
		0.990955671	-0.062525592	0.006116721	0.000344194	-0.000342154	-0.000470830	0.000485257	0.002381220
		0.000497616	0.002384050	-0.000342154	-0.000470830	0.006129187	0.000509361	0.990942888	-0.062636163
		-0.000342157	-0.000470897	0.000485257	0.002381220	0.990942888	-0.062636163	0.006129963	0.000445945
105.000000000	0.006269821	0.000274738	0.990559416	-0.065440103	0.000523194	0.002494265	-0.000351565	-0.000485636
		0.990559416	-0.065440103	0.006266222	0.000206021	-0.000351559	-0.000485563	0.000509507	0.002490981
		0.000523194	0.002494265	-0.000351559	-0.000485563	0.006281356	0.000382047	0.990546080	-0.065556209
		-0.000351565	-0.000485636	0.000509507	0.002490981	0.990546080	-0.065556209	0.006278063	0.000311180
110.000000000	0.006419409	0.000136210	0.990154592	-0.068352817	0.000548990	0.002604432	-0.000360922	-0.000500409
		0.990154592	-0.068352817	0.006412527	0.000061055	-0.000360913	-0.000500330	0.000533918	0.002600708
		0.000548990	0.002604432	-0.000360913	-0.000500330	0.006430823	0.000248233	0.990140670	-0.068474454
		-0.000360922	-0.000500409	0.000533918	0.002600708	0.990140670	-0.068474454	0.006423135	0.000169808
115.000000000	0.006565865	-0.000008932	0.989741205	-0.071263711	0.000575005	0.002714550	-0.000370228	-0.000515216
		0.989741205	-0.071263711	0.006555401	-0.000090631	-0.000370216	-0.000515131	0.000558488	0.002710401
		0.000575005	0.002714550	-0.000370216	-0.000515131	0.006577374	0.000107979	0.989726664	-0.071390873
		-0.000370228	-0.000515216	0.000558488	0.002710401	0.989726664	-0.071390873	0.006564951	0.000021900
120.000000000	0.006708965	-0.000160616	0.989319263	-0.074172758	0.000601237	0.002824620	-0.000379484	-0.000530057
		0.989319263	-0.074172758	0.006694610	-0.000248953	-0.000379468	-0.000529967	0.000583217	0.002820059
		0.000601237	0.002824620	-0.000379468	-0.000529967	0.006720798	-0.000038651	0.989304071	-0.074305441
		-0.000379484	-0.000530057	0.000583217	0.002820059	0.989304071	-0.074305441	0.006703287	-0.000132467
125.000000000	0.006848490	-0.000318764	0.988888772	-0.077079934	0.000627688	0.002934640	-0.000388688	-0.000544933
		0.988888772	-0.077079934	0.006829923	-0.000413820	-0.000388669	-0.000544836	0.000608106	0.002929683
		0.000627688	0.002934640	-0.000388669	-0.000544836	0.006860883	-0.000191585	0.988872896	-0.077218133
		-0.000388688	-0.000544933	0.000608106	0.002929683	0.988872896	-0.077218133	0.006837921	-0.000293211
130.000000000	0.006984220	-0.000483290	0.988449740	-0.079985213	0.000654356	0.003044610	-0.000397842	-0.000559842
		0.988449740	-0.079985213	0.006961108	-0.000585136	-0.000397819	-0.000559740	0.000633155	0.003039272
		0.000654356	0.003044611	-0.000397819	-0.000559740	0.006997421	-0.000350746	0.988433148	-0.080128923
		-0.000397842	-0.000559842	0.000633155	0.003039272	0.988433148	-0.080128923	0.006968631	-0.000460240
135.000000000	0.007115938	-0.000654101	0.988002176	-0.082888571	0.000681243	0.003154531	-0.000406944	-0.000574785
		0.988002176	-0.082888571	0.007087940	-0.000762795	-0.000406918	-0.000574677	0.000658362	0.003148827
		0.000681243	0.003154531	-0.000406918	-0.000574677	0.007130204	-0.000516050	0.987984834	-0.083037785
		-0.000406944	-0.000574785	0.000658362	0.003148827	0.987984834	-0.083037785	0.007095200	-0.000633457
140.000000000	0.007243431	-0.000831098	0.987546085	-0.085789982	0.000708347	0.003264401	-0.000415995	-0.000589762
		0.987546085	-0.085789982	0.007210194	-0.000946686	-0.000415965	-0.000589648	0.000683729	0.003258346
		0.000708347	0.003264401	-0.000415965	-0.000589648	0.007259028	-0.000687407	0.987527962	-0.085944696
		-0.000415995	-0.000589762	0.000683730	0.003258346	0.987527962	-0.085944696	0.007217411	-0.000812759
145.000000000	0.007366486	-0.001014177	0.987081476	-0.088689422	0.000735670	0.003374221	-0.000424994	-0.000604772
		0.987081476	-0.088689422	0.007327648	-0.001136691	-0.000424961	-0.000604653	0.000709256	0.003367830
		0.000735670	0.003374221	-0.000424961	-0.000604653	0.007383689	-0.000864722	0.987062539	-0.088849629
		-0.000424994	-0.000604772	0.000709256	0.003367830	0.987062539	-0.088849629	0.007335051	-0.000998035
150.000000000	0.007484893	-0.001203224	0.986608356	-0.091586865	0.000763210	0.003483990	-0.000433942	-0.000619816
		0.986608356	-0.091586865	0.007440084	-0.001332682	-0.000433906	-0.000619691	0.000734942	0.003477279
		0.000763210	0.003483990	-0.000433906	-0.000619691	0.007503987	-0.001047893	0.986588573	-0.091752560
		-0.000433942	-0.000619816	0.000734942	0.003477279	0.986588573	-0.091752560	0.007447910	-0.001189168
155.000000000	0.007589142	-0.001373182	0.986172727	-0.094435203	0.000793038	0.003589391	-0.000441685	-0.000632837
		0.986172727	-0.094435203	0.007539104	-0.001507879	-0.000441645	-0.000632710	0.000762628	0.003582442
		0.000793038	0.003589391	-0.000441645	-0.000632710	0.007608210	-0.001213248	0.986152099	-0.094606428
		-0.000441685	-0.000632837	0.000762628	0.003582442	0.986152099	-0.094606428	0.007546108	-0.001359433
160.000000000	0.007689554	-0.001547684	0.985728876	-0.097281784	0.000823246	0.003694696	-0.000449390	-0.000645882
		0.985728876	-0.097281784	0.007634032	-0.001687600	-0.000449347	-0.000645753	0.000790622	0.003687531
		0.000823246	0.003694696	-0.000449347	-0.000645753	0.007708795	-0.001383030	0.985707371	-0.097458532
		-0.000449390	-0.000645882	0.000790622	0.003687531	0.985707371	-0.097458532	0.007640431	-0.001534071
165.000000000	0.007785991	-0.001726642	0.985276810	-0.100126584	0.000853834	0.003799904	-0.000457058	-0.000658951
		0.985276810	-0.100126584	0.007724727	-0.001871750	-0.000457012	-0.000658820	0.000818925	0.003792546
		0.000853834	0.003799904	-0.000457012	-0.000658820	0.007805609	-0.001557160	0.985254396	-0.100308850
		-0.000457058	-0.000658951	0.000818925	0.003792546	0.985254396	-0.100308850	0.007730742	-0.001712994
170.000000000	0.007878316	-0.001909967	0.984816535	-0.102969578	0.000884801	0.003905014	-0.000464688	-0.000672043
		0.984816535	-0.102969578	0.007811049	-0.002060229	-0.000464639	-0.000671910	0.000847536	0.003897486
		0.000884801	0.003905015	-0.000464639	-0.000671910	0.007898523	-0.001735553	0.984793181	-0.103157357
		-0.000464688	-0.000672043	0.000847536	0.003897486	0.984793181	-0.103157357	0.007816909	-0.001896111
175.000000000	0.007966398	-0.002097567	0.984348059	-0.105810744	0.000916148	0.004010026	-0.000472282	-0.000685159
		0.984348059	-0.105810744	0.007892860	-0.002252937	-0.000472229	-0.000685024	0.000876454	0.004002351
		0.000916148	0.004010026	-0.000472229	-0.000685024	0.007987407	-0.001918124	0.984323732	-0.106004029
		-0.000472282	-0.000685159	0.000876454	0.004002351	0.984323732	-0.106004029	0.007898802	-0.002083325
180.000000000	0.008050102	-0.002289343	0.983871388	-0.108650058	0.000947873	0.004114937	-0.000479838	-0.000698299
		0.983871388	-0.108650058	0.007970025	-0.002449766	-0.000479782	-0.000698162	0.000905680	0.004107139
		0.000947873	0.004114937	-0.000479782	-0.000698162	0.008072134	-0.002104782	0.983846056	-0.108848844
		-0.000479838	-0.000698299	0.000905680	0.004107139	0.983846056	-0.108848844	0.007976290	-0.002274539
185.000000000	0.008129300	-0.002485195	0.983386529	-0.111487496	0.000979977	0.004219746	-0.000487357	-0.000711462
		0.983386529	-0.111487496	0.008042412	-0.002650606	-0.000487297	-0.000711324	0.000935213	0.004211850
		0.000979977	0.004219747	-0.000487297	-0.000711324	0.008152580	-0.002295434	0.983360160	-0.111691776
		-0.000487357	-0.000711462	0.000935213	0.004211850	0.983360160	-0.111691776	0.008049248	-0.002469651
190.000000000	0.008203864	-0.002685020	0.982893488	-0.114323035	0.001012459	0.004324454	-0.000494839	-0.000724648
		0.982893488	-0.114323035	0.008109891	-0.002855344	-0.000494775	-0.000724509	0.000965054	0.004316484
		0.001012459	0.004324454	-0.000494775	-0.000724509	0.008228622	-0.002489983	0.982866051	-0.114532803
		-0.000494839	-0.000724648	0.000965054	0.004316484	0.982866051	-0.114532803	0.008117551	-0.002668555
195.000000000	0.008273669	-0.002888710	0.982392274	-0.117156651	0.001045319	0.004429059	-0.000502283	-0.000737858
		0.982392274	-0.117156651	0.008172333	-0.003063862	-0.000502215	-0.000737717	0.000995202	0.004421039
		0.001045319	0.004429059	-0.000502215	-0.000737717	0.008300139	-0.002688328	0.982363735	-0.117371900
		-0.000502283	-0.000737858	0.000995202	0.004421039	0.982363735	-0.117371900	0.008181078	-0.002871143
200.000000000	0.008338592	-0.003096154	0.981882892	-0.119988320	0.001078557	0.004533559	-0.000509689	-0.000751091
		0.981882892	-0.119988320	0.008229615	-0.003276040	-0.000509618	-0.000750948	0.001025657	0.004525515
		0.001078557	0.004533559	-0.000509618	-0.000750948	0.008367013	-0.002890368	0.981853221	-0.120209044
		-0.000509689	-0.000751091	0.001025657	0.004525515	0.981853221	-0.120209044	0.008239710	-0.003077301
205.000000000	0.008409658	-0.003279261	0.981396041	-0.122803563	0.001112702	0.004635372	-0.000516593	-0.000763582
		0.981396041	-0.122803563	0.008294112	-0.003464159	-0.000516520	-0.000763439	0.001056942	0.004627436
		0.001112702	0.004635372	-0.000516520	-0.000763439	0.008438366	-0.003068759	0.981365225	-0.123029798
		-0.000516593	-0.000763582	0.001056942	0.004627436	0.981365225	-0.123029798	0.008304606	-0.003260078
210.000000000	0.008476939	-0.003465490	0.980901120	-0.125616995	0.001147264	0.004737064	-0.000523462	-0.000776094
		0.980901120	-0.125616995	0.008354577	-0.003655354	-0.000523388	-0.000775950	0.001088572	0.004729263
		0.001147264	0.004737064	-0.000523388	-0.000775950	0.008506105	-0.003250205	0.980869128	-0.125848734
		-0.000523462	-0.000776093	0.001088572	0.004729263	0.980869128	-0.125848734	0.008365669	-0.003445857
215.000000000	0.008540354	-0.003654764	0.980398134	-0.128428594	0.001182243	0.004838634	-0.000530298	-0.000788626
		0.980398134	-0.128428594	0.008410926	-0.003849542	-0.000530221	-0.000788483	0.001120548	0.004830997
		0.001182243	0.004838634	-0.000530221	-0.000788483	0.008570151	-0.003434635	0.980364934	-0.128665831
		-0.000530297	-0.000788626	0.001120548	0.004830997	0.980364934	-0.128665831	0.008422816	-0.003634559
220.000000000	0.008599821	-0.003847007	0.979887092	-0.131238337	0.001217637	0.004940082	-0.000537098	-0.000801179
		0.979887092	-0.131238337	0.008463076	-0.004046637	-0.000537020	-0.000801036	0.001152870	0.004932637
		0.001217637	0.004940082	-0.000537020	-0.000801036	0.008630424	-0.003621978	0.979852652	-0.131481064
		-0.000537098	-0.000801179	0.001152870	0.004932637	0.979852652	-0.131481064	0.008475966	-0.003826105
225.000000000	0.008655261	-0.004042141	0.979367998	-0.134046200	0.001253447	0.005041407	-0.000543865	-0.000813753
		0.979367998	-0.134046200	0.008510945	-0.004246553	-0.000543785	-0.000813610	0.001185536	0.005034181
		0.001253447	0.005041407	-0.000543785	-0.000813610	0.008686847	-0.003812158	0.979332286	-0.134294411
		-0.000543865	-0.000813753	0.001185536	0.005034181	0.979332286	-0.134294411	0.008525041	-0.004020414
230.000000000	0.008706596	-0.004240083	0.978840860	-0.136852160	0.001289672	0.005142605	-0.000550597	-0.000826348
