! freq	real(S11)	imag(S11)	real(S12)	imag(S12)	real(S13)	imag(S13)	
!     	real(S14)	imag(S14)	
!     	real(S21)	imag(S21)	real(S22)	imag(S22)	real(S23)	imag(S23)	
!     	real(S24)	imag(S24)	
!     	real(S31)	imag(S31)	real(S32)	imag(S32)	real(S33)	imag(S33)	
!     	real(S34)	imag(S34)	
!     	real(S41)	imag(S41)	real(S42)	imag(S42)	real(S43)	imag(S43)	
!     	real(S44)	imag(S44)	
!port1: p1  port2: p2  port3: p3  port4: p4
#  MHz  S  RI  R 50
0.000000000	0.000395113	-0.000000000	0.999599975	0.000000000	0.000032745	0.000000000	-0.000064700	0.000000000
		0.999599972	-0.000000000	0.000395129	0.000000000	-0.000064433	0.000000000	0.000032456	-0.000000000
		0.000032810	0.000000000	-0.000038713	0.000000000	0.000395002	-0.000000000	0.999599968	0.000000000
		-0.000038713	0.000000000	0.000032800	-0.000000000	0.999599655	-0.000000000	0.000395331	0.000000000
5.000000000	0.000783054	0.000012548	0.999164294	-0.003279307	0.000211702	0.000028532	-0.000097259	-0.000008721
		0.999164279	-0.003279303	0.000785638	0.000012001	-0.000097248	-0.000008718	0.000211589	0.000028597
		0.000210575	0.000028824	-0.000077708	-0.000006232	0.000781137	0.000010457	0.999164018	-0.003274522
		-0.000077713	-0.000006235	0.000210407	0.000028939	0.999164032	-0.003274516	0.000783349	0.000009954
10.000000000	0.001170595	0.000037525	0.998717860	-0.006555754	0.000380542	0.000104473	-0.000128646	-0.000023257
		0.998717832	-0.006555746	0.001175783	0.000035928	-0.000128625	-0.000023247	0.000380284	0.000104705
		0.000377837	0.000105414	-0.000115703	-0.000018679	0.001166837	0.000031246	0.998717504	-0.006546187
		-0.000115713	-0.000018688	0.000377421	0.000105822	0.998717530	-0.006546176	0.001171273	0.000029773
15.000000000	0.001557437	0.000074920	0.998260686	-0.009829306	0.000529760	0.000225169	-0.000157953	-0.000043421
		0.998260646	-0.009829294	0.001565288	0.000071773	-0.000157924	-0.000043403	0.000529262	0.000225652
		0.000525017	0.000227012	-0.000151958	-0.000037201	0.001552051	0.000062360	0.998260281	-0.009814961
		-0.000151972	-0.000037219	0.000524183	0.000227854	0.998260320	-0.009814944	0.001558758	0.000059450
20.000000000	0.001943282	0.000124716	0.997792787	-0.013099927	0.000650571	0.000386330	-0.000184433	-0.000068937
		0.997792735	-0.013099911	0.001953882	0.000119520	-0.000184396	-0.000068906	0.000649696	0.000387114
		0.000643148	0.000389161	-0.000185748	-0.000061579	0.001936572	0.000103789	0.997792365	-0.013080808
		-0.000185763	-0.000061609	0.000641658	0.000390518	0.997792417	-0.013080786	0.001945614	0.000098976
25.000000000	0.002327832	0.000186888	0.997314177	-0.016367584	0.000735035	0.000582143	-0.000207369	-0.000099436
		0.997314112	-0.016367563	0.002341292	0.000179149	-0.000207329	-0.000099390	0.000733615	0.000583233
		0.000724158	0.000585827	-0.000216374	-0.000091520	0.002320193	0.000155520	0.997313768	-0.016343694
		-0.000216388	-0.000091563	0.000721721	0.000587704	0.997313833	-0.016343666	0.002331655	0.000148340
30.000000000	0.002710789	0.000261407	0.996824870	-0.019632239	0.000776305	0.000805429	-0.000226094	-0.000134468
		0.996824794	-0.019632215	0.002727245	0.000250632	-0.000226052	-0.000134406	0.000774155	0.000806779
		0.000761128	0.000809568	-0.000243171	-0.000126653	0.002702707	0.000217535	0.996824507	-0.019603583
		-0.000243180	-0.000126712	0.000757419	0.000811878	0.996824584	-0.019603550	0.002716693	0.000207526
35.000000000	0.003091856	0.000348236	0.996324882	-0.022893860	0.000768850	0.001047836	-0.000239991	-0.000173505
		0.996324793	-0.022893831	0.003111470	0.000333938	-0.000239952	-0.000173424	0.000765777	0.001049342
		0.000748516	0.001051741	-0.000265513	-0.000166540	0.003083907	0.000289812	0.996324595	-0.022860441
		-0.000265514	-0.000166617	0.000743204	0.001054292	0.996324685	-0.022860403	0.003100541	0.000276517
40.000000000	0.003470738	0.000447331	0.995814226	-0.026152410	0.000708632	0.001300070	-0.000248509	-0.000215943
		0.995814125	-0.026152376	0.003493696	0.000429029	-0.000248476	-0.000215843	0.000704451	0.001301565
		0.000682356	0.001302748	-0.000282821	-0.000210678	0.003463588	0.000372327	0.995814046	-0.026114234
		-0.000282810	-0.000210772	0.000675126	0.001305239	0.995814149	-0.026114190	0.003483012	0.000355290
45.000000000	0.003847140	0.000558644	0.995292918	-0.029407855	0.000593259	0.001552147	-0.000251165	-0.000261116
		0.995292805	-0.029407817	0.003873652	0.000535863	-0.000251143	-0.000260997	0.000587810	0.001553402
		0.000560404	0.001552301	-0.000294570	-0.000258498	0.003841544	0.000465051	0.995292876	-0.029364925
		-0.000294542	-0.000258611	0.000550986	0.001554323	0.995292992	-0.029364877	0.003863920	0.000443822
50.000000000	0.004220767	0.000682118	0.994760972	-0.032660159	0.000422088	0.001793673	-0.000247556	-0.000308298
		0.994760847	-0.032660117	0.004251070	0.000654390	-0.000247548	-0.000308160	0.000415250	0.001794399
		0.000382245	0.001789725	-0.000300295	-0.000309380	0.004217569	0.000567951	0.994761100	-0.032612481
		-0.000300246	-0.000309510	0.000370441	0.001790767	0.994761228	-0.032612428	0.004243077	0.000542083
55.000000000	0.004404498	0.000548344	0.994441092	-0.035630378	0.000451697	0.001951789	-0.000263307	-0.000323944
		0.994440977	-0.035630334	0.004441879	0.000517989	-0.000263316	-0.000323792	0.000443104	0.001952482
		0.000412713	0.001946771	-0.000312515	-0.000325483	0.004404543	0.000425514	0.994441497	-0.035578081
		-0.000312455	-0.000325631	0.000399171	0.001947810	0.994441624	-0.035578032	0.004435898	0.000397021
60.000000000	0.004583869	0.000402086	0.994112345	-0.038598974	0.000480144	0.002110147	-0.000279254	-0.000339413
		0.994112241	-0.038598930	0.004628174	0.000368459	-0.000279281	-0.000339245	0.000469623	0.002110830
		0.000442707	0.002103914	-0.000324569	-0.000341727	0.004586531	0.000269817	0.994113056	-0.038542062
		-0.000324497	-0.000341895	0.000427320	0.002104965	0.994113180	-0.038542017	0.004623566	0.000238136
65.000000000	0.004758214	0.000243491	0.993774738	-0.041565921	0.000507427	0.002268739	-0.000295393	-0.000354703
		0.993774645	-0.041565876	0.004809248	0.000205955	-0.000295439	-0.000354517	0.000494805	0.002269437
		0.000472227	0.002261151	-0.000336455	-0.000358110	0.004762800	0.000101041	0.993775782	-0.041504397
		-0.000336371	-0.000358298	0.000454890	0.002262231	0.993775904	-0.041504357	0.004805311	0.000065619
70.000000000	0.004926873	0.000072738	0.993428278	-0.044531193	0.000533545	0.002427559	-0.000311724	-0.000369813
		0.993428196	-0.044531147	0.004984399	0.000030668	-0.000311791	-0.000369607	0.000518647	0.002428292
		0.000501274	0.002418481	-0.000348172	-0.000374633	0.004932625	-0.000080593	0.993429682	-0.044465061
		-0.000348075	-0.000374841	0.000481879	0.002419605	0.993429802	-0.044465025	0.004980372	-0.000120300
75.000000000	0.005089192	-0.000109959	0.993072973	-0.047494762	0.000558496	0.002586601	-0.000328245	-0.000384739
		0.993072902	-0.047494716	0.005152934	-0.000157179	-0.000328334	-0.000384514	0.000541148	0.002587388
		0.000529846	0.002575905	-0.000359720	-0.000391292	0.005095287	-0.000274831	0.993074764	-0.047424026
		-0.000359608	-0.000391522	0.000508287	0.002577086	0.993074883	-0.047423994	0.005147994	-0.000319352
80.000000000	0.005244525	-0.000304358	0.992708829	-0.050456604	0.000582280	0.002745858	-0.000344954	-0.000399482
		0.992708768	-0.050456557	0.005314169	-0.000357327	-0.000345066	-0.000399234	0.000562306	0.002746716
		0.000557944	0.002733419	-0.000371097	-0.000408087	0.005250082	-0.000481382	0.992711035	-0.050381267
		-0.000370969	-0.000408340	0.000534114	0.002734672	0.992711152	-0.050381240	0.005307435	-0.000531231
85.000000000	0.005392238	-0.000510186	0.992335853	-0.053416691	0.000604895	0.002905324	-0.000361849	-0.000414038
		0.992335803	-0.053416644	0.005467428	-0.000569485	-0.000361986	-0.000413767	0.000582120	0.002906268
		0.000585567	0.002891024	-0.000382302	-0.000425017	0.005396314	-0.000699922	0.992338502	-0.053336757
		-0.000382157	-0.000425292	0.000559360	0.002892363	0.992338616	-0.053336734	0.005457966	-0.000755593
90.000000000	0.005531703	-0.000727137	0.991954052	-0.056374997	0.000626340	0.003064992	-0.000378930	-0.000428407
		0.991954014	-0.056374950	0.005612049	-0.000793329	-0.000379093	-0.000428111	0.000600589	0.003066035
		0.000612715	0.003048719	-0.000393334	-0.000442080	0.005533303	-0.000930088	0.991957172	-0.056290470
		-0.000393170	-0.000442378	0.000584023	0.003050156	0.991957284	-0.056290452	0.005598873	-0.000992059
95.000000000	0.005662310	-0.000954875	0.991563435	-0.059331496	0.000646614	0.003224856	-0.000396195	-0.000442587
		0.991563408	-0.059331448	0.005747381	-0.001028503	-0.000396384	-0.000442263	0.000617711	0.003226008
		0.000639388	0.003206502	-0.000404192	-0.000459275	0.005660382	-0.001171486	0.991567052	-0.059242380
		-0.000404008	-0.000459597	0.000608105	0.003208049	0.991567162	-0.059242366	0.005729456	-0.001240213
100.000000000	0.005783459	-0.001193036	0.991164008	-0.062286161	0.000665715	0.003384909	-0.000413641	-0.000456575
		0.991163992	-0.062286113	0.005872791	-0.001274618	-0.000413858	-0.000456223	0.000633484	0.003386179
		0.000665586	0.003364371	-0.000414874	-0.000476600	0.005776905	-0.001423689	0.991168150	-0.062192461
		-0.000414670	-0.000476947	0.000631604	0.003366041	0.991168258	-0.062192451	0.005849036	-0.001499602
105.000000000	0.005907724	-0.001392666	0.990801299	-0.065183443	0.000698977	0.003542356	-0.000423516	-0.000469765
		0.990801224	-0.065183377	0.006003554	-0.001478104	-0.000423756	-0.000469399	0.000662253	0.003542759
		0.000700615	0.003519246	-0.000421519	-0.000486905	0.005903213	-0.001633576	0.990805714	-0.065085285
		-0.000421387	-0.000487309	0.000663285	0.003520973	0.990805698	-0.065085187	0.005980267	-0.001713461
110.000000000	0.006025213	-0.001600184	0.990430123	-0.068079132	0.000732435	0.003699762	-0.000433330	-0.000483005
		0.990429990	-0.068079048	0.006127423	-0.001689773	-0.000433593	-0.000482625	0.000690978	0.003699348
		0.000736016	0.003674042	-0.000428110	-0.000497250	0.006022130	-0.001851727	0.990434837	-0.067976519
		-0.000428051	-0.000497710	0.000695188	0.003675861	0.990434697	-0.067976333	0.006103964	-0.001935826
115.000000000	0.006135582	-0.001815364	0.990050485	-0.070973205	0.000766090	0.003857128	-0.000443083	-0.000496295
		0.990050294	-0.070973101	0.006244047	-0.001909395	-0.000443369	-0.000495900	0.000719659	0.003855946
		0.000771789	0.003828757	-0.000434648	-0.000507634	0.006133289	-0.002077889	0.990055525	-0.070866138
		-0.000434663	-0.000508151	0.000727313	0.003830705	0.990055261	-0.070865862	0.006219754	-0.002166440
120.000000000	0.006238494	-0.002037966	0.989662392	-0.073865635	0.000799942	0.004014453	-0.000452772	-0.000509636
		0.989662144	-0.073865512	0.006353082	-0.002136729	-0.000453084	-0.000509226	0.000748295	0.004012551
		0.000807935	0.003983391	-0.000441132	-0.000518057	0.006236335	-0.002311792	0.989667784	-0.073754118
		-0.000441221	-0.000518631	0.000759660	0.003985505	0.989667398	-0.073753752	0.006327272	-0.002405030
125.000000000	0.006333621	-0.002267737	0.989265851	-0.076756399	0.000833991	0.004171738	-0.000462400	-0.000523027
		0.989265545	-0.076756256	0.006454192	-0.002371519	-0.000462737	-0.000522601	0.000776886	0.004169165
		0.000844453	0.004137944	-0.000447563	-0.000528520	0.006330919	-0.002553156	0.989271620	-0.076640434
		-0.000447726	-0.000529149	0.000792229	0.004140261	0.989271112	-0.076639978	0.006426165	-0.002651309
130.000000000	0.006420643	-0.002504413	0.988860868	-0.079645471	0.000868236	0.004328981	-0.000471965	-0.000536467
		0.988860504	-0.079645308	0.006547047	-0.002613497	-0.000472328	-0.000536025	0.000805432	0.004325787
		0.000881343	0.004292415	-0.000453940	-0.000539021	0.006416701	-0.002801683	0.988867041	-0.079525061
		-0.000454178	-0.000539706	0.000825020	0.004294972	0.988866411	-0.079524514	0.006516086	-0.002904978
135.000000000	0.006499247	-0.002747716	0.988447449	-0.082532827	0.000902677	0.004486184	-0.000481468	-0.000549957
		0.988447028	-0.082532644	0.006631330	-0.002862382	-0.000481857	-0.000549498	0.000833934	0.004482417
		0.000918605	0.004446803	-0.000460263	-0.000549561	0.006493354	-0.003057067	0.988454051	-0.082407976
		-0.000460576	-0.000550302	0.000858033	0.004449638	0.988453300	-0.082407336	0.006596700	-0.003165723
140.000000000	0.006569133	-0.002997357	0.988025601	-0.085418443	0.000937316	0.004643345	-0.000490908	-0.000563496
		0.988025123	-0.085418239	0.006706730	-0.003117883	-0.000491324	-0.000563020	0.000862391	0.004639056
		0.000956239	0.004601108	-0.000466532	-0.000560139	0.006560560	-0.003318985	0.988032659	-0.085289153
		-0.000466921	-0.000560936	0.000891267	0.004604259	0.988031787	-0.085288421	0.006667683	-0.003433218
145.000000000	0.006630007	-0.003253034	0.987595331	-0.088302294	0.000972150	0.004800464	-0.000500285	-0.000577084
		0.987594795	-0.088302069	0.006772948	-0.003379694	-0.000500729	-0.000576591	0.000890803	0.004795702
		0.000994244	0.004755328	-0.000472747	-0.000570756	0.006618011	-0.003587104	0.987602870	-0.088168568
		-0.000473212	-0.000571607	0.000924723	0.004758834	0.987601879	-0.088167742	0.006728720	-0.003707124
150.000000000	0.006681587	-0.003514436	0.987156645	-0.091184355	0.001007181	0.004957542	-0.000509598	-0.000590721
		0.987156053	-0.091184109	0.006829693	-0.003647500	-0.000510071	-0.000590211	0.000919171	0.004952357
		0.001032620	0.004909464	-0.000478907	-0.000581410	0.006665412	-0.003861077	0.987164692	-0.091046197
		-0.000479448	-0.000582317	0.000958401	0.004913364	0.987163581	-0.091045277	0.006779511	-0.003987090
155.000000000	0.006771594	-0.003739772	0.986737205	-0.094043858	0.001048279	0.005108122	-0.000516969	-0.000601557
		0.986736631	-0.094043583	0.006931316	-0.003880563	-0.000517467	-0.000601009	0.000955379	0.005103806
		0.001073662	0.005059355	-0.000484970	-0.000593389	0.006756278	-0.004097651	0.986745865	-0.093901077
		-0.000485508	-0.000594263	0.000994517	0.005063832	0.986744828	-0.093900089	0.006879124	-0.004230850
160.000000000	0.006855128	-0.003970196	0.986309483	-0.096901693	0.001089974	0.005258558	-0.000524300	-0.000612423
		0.986308928	-0.096901388	0.007026308	-0.004119059	-0.000524825	-0.000611837	0.000992053	0.005255156
		0.001115247	0.005209113	-0.000490947	-0.000605423	0.006840249	-0.004339411	0.986318783	-0.096754292
		-0.000491483	-0.000606262	0.001031022	0.005214214	0.986317820	-0.096753237	0.006971680	-0.004480062
165.000000000	0.006932018	-0.004205533	0.985873486	-0.099757833	0.001132268	0.005408849	-0.000531593	-0.000623319
		0.985872949	-0.099757500	0.007114494	-0.004362817	-0.000532145	-0.000622694	0.001029194	0.005406405
		0.001157374	0.005358738	-0.000496839	-0.000617511	0.006917155	-0.004586174	0.985883453	-0.099605817
		-0.000497374	-0.000618316	0.001067916	0.005364511	0.985882564	-0.099604695	0.007057003	-0.004734540
170.000000000	0.007002101	-0.004445609	0.985429219	-0.102612257	0.001175159	0.005558993	-0.000538846	-0.000634244
		0.985428702	-0.102611895	0.007195703	-0.004611659	-0.000539426	-0.000633580	0.001066801	0.005557552
		0.001200043	0.005508227	-0.000502646	-0.000629653	0.006986828	-0.004837750	0.985439880	-0.102455630
		-0.000503181	-0.000630423	0.001105198	0.005514721	0.985439067	-0.102454441	0.007134922	-0.004994096
175.000000000	0.007065216	-0.004690242	0.984976690	-0.105464939	0.001218648	0.005708988	-0.000546060	-0.000645199
		0.984976191	-0.105464549	0.007269770	-0.004865402	-0.000546669	-0.000644494	0.001104874	0.005708596
		0.001243255	0.005657580	-0.000508366	-0.000641848	0.007049106	-0.005093949	0.984988071	-0.105303705
		-0.000508903	-0.000642583	0.001142868	0.005664844	0.984987333	-0.105302450	0.007205270	-0.005258534
180.000000000	0.007121206	-0.004939247	0.984515904	-0.108315857	0.001262733	0.005858832	-0.000553234	-0.000656183
		0.984515425	-0.108315438	0.007336532	-0.005123860	-0.000553873	-0.000655438	0.001143413	0.005859536
		0.001287007	0.005806794	-0.000514001	-0.000654097	0.007103833	-0.005354572	0.984528032	-0.108150019
		-0.000514539	-0.000654796	0.001180926	0.005814879	0.984527370	-0.108148698	0.007267887	-0.005527656
185.000000000	0.007169922	-0.005192433	0.984046868	-0.111164985	0.001307414	0.006008524	-0.000560369	-0.000667196
		0.984046408	-0.111164538	0.007395832	-0.005386841	-0.000561039	-0.000666411	0.001182417	0.006010370
		0.001331301	0.005955869	-0.000519549	-0.000666398	0.007150857	-0.005619418	0.984059770	-0.110994549
		-0.000520090	-0.000667060	0.001219373	0.005964825	0.984059184	-0.110993163	0.007322614	-0.005801257
190.000000000	0.007211218	-0.005449607	0.983569588	-0.114012300	0.001352692	0.006158062	-0.000567464	-0.000678239
		0.983569148	-0.114011825	0.007447518	-0.005654150	-0.000568166	-0.000677412	0.001221886	0.006161099
		0.001376136	0.006104802	-0.000525010	-0.000678750	0.007190030	-0.005888281	0.983583291	-0.113837271
		-0.000525555	-0.000679376	0.001258207	0.006114681	0.983582781	-0.113835820	0.007369301	-0.006079129
195.000000000	0.007244950	-0.005710570	0.983084071	-0.116857779	0.001398565	0.006307444	-0.000574519	-0.000689311
		0.983083651	-0.116857275	0.007491443	-0.005925587	-0.000575255	-0.000688442	0.001261821	0.006311720
		0.001421511	0.006253593	-0.000530384	-0.000691155	0.007221211	-0.006160952	0.983098601	-0.116678160
		-0.000530933	-0.000691743	0.001297428	0.006264447	0.983098168	-0.116676645	0.007407801	-0.006361061
200.000000000	0.007270985	-0.005975119	0.982590324	-0.119701397	0.001445032	0.006456668	-0.000581534	-0.000700412
		0.982589923	-0.119700865	0.007527463	-0.006200947	-0.000582304	-0.000699500	0.001302220	0.006462233
		0.001467427	0.006402240	-0.000535670	-0.000703610	0.007244264	-0.006437216	0.982605708	-0.119517194
		-0.000536226	-0.000704160	0.001337038	0.006414122	0.982605352	-0.119515614	0.007437973	-0.006646836
205.000000000	0.007330174	-0.006220341	0.982101480	-0.122527706	0.001493895	0.006601746	-0.000587123	-0.000710660
		0.982101110	-0.122527183	0.007598855	-0.006457226	-0.000587910	-0.000709693	0.001345225	0.006608899
		0.001515471	0.006548529	-0.000542576	-0.000715303	0.007303275	-0.006694053	0.982117794	-0.122338909
		-0.000543044	-0.000715865	0.001378693	0.006561568	0.982117514	-0.122337374	0.007505864	-0.006913633
210.000000000	0.007383391	-0.006468893	0.981604509	-0.125352189	0.001543451	0.006746629	-0.000592665	-0.000720939
		0.981604169	-0.125351673	0.007664133	-0.006717102	-0.000593470	-0.000719916	0.001388808	0.006755420
		0.001564137	0.006694644	-0.000549442	-0.000727023	0.007356049	-0.006954208	0.981621778	-0.125158802
		-0.000549820	-0.000727597	0.001420822	0.006708898	0.981621573	-0.125157312	0.007567368	-0.007183947
215.000000000	0.007430547	-0.006720645	0.981099416	-0.128174821	0.001593700	0.006891314	-0.000598160	-0.000731249
		0.981099105	-0.128174314	0.007723204	-0.006980448	-0.000598985	-0.000730171	0.001432970	0.006901796
		0.001613424	0.006840582	-0.000556268	-0.000738769	0.007402499	-0.007217547	0.981117668	-0.127976850
		-0.000556554	-0.000739356	0.001463424	0.006856109	0.981117538	-0.127975406	0.007622394	-0.007457646
220.000000000	0.007471554	-0.006975468	0.980586208	-0.130995579	0.001644641	0.007035798	-0.000603608	-0.000741590
		0.980585927	-0.130995081	0.007775977	-0.007247135	-0.000604453	-0.000740455	0.001477708	0.007048025
		0.001663333	0.006986341	-0.000563054	-0.000750541	0.007442539	-0.007483938	0.980605469	-0.130793030
		-0.000563247	-0.000751143	0.001506499	0.007003201	0.980605413	-0.130791632	0.007670855	-0.007734597
225.000000000	0.007506327	-0.007233230	0.980064892	-0.133814441	0.001696274	0.007180079	-0.000609010	-0.000751962
		0.980064640	-0.133813951	0.007822364	-0.007517030	-0.000609876	-0.000750770	0.001523024	0.007194104
		0.001713862	0.007131921	-0.000569800	-0.000762340	0.007476086	-0.007753244	0.980085188	-0.133607318
		-0.000569898	-0.000762957	0.001550046	0.007150172	0.980085206	-0.133605967	0.007712666	-0.008014662
230.000000000	0.007534784	-0.007493796	0.979535473	-0.136631383	0.001748599	0.007324154	-0.000614365	-0.000762365
