! freq	real(S11)	imag(S11)	real(S12)	imag(S12)	real(S13)	imag(S13)	
!     	real(S14)	imag(S14)	
!     	real(S21)	imag(S21)	real(S22)	imag(S22)	real(S23)	imag(S23)	
!     	real(S24)	imag(S24)	
!     	real(S31)	imag(S31)	real(S32)	imag(S32)	real(S33)	imag(S33)	
!     	real(S34)	imag(S34)	
!     	real(S41)	imag(S41)	real(S42)	imag(S42)	real(S43)	imag(S43)	
!     	real(S44)	imag(S44)	
!port1: p1  port2: p2  port3: p3  port4: p4
#  MHz  S  RI  R 50
0.000000000	0.000514506	-0.000000000	0.999479435	0.000000000	0.000037697	0.000000000	-0.000066590	0.000000000
		0.999479433	0.000000000	0.000514481	-0.000000000	-0.000066582	0.000000000	0.000037748	-0.000000000
		0.000074313	0.000000000	-0.000019137	0.000000000	0.000515404	0.000000000	0.999478710	-0.000000000
		-0.000019137	0.000000000	0.000074345	0.000000000	0.999478761	0.000000000	0.000515342	-0.000000000
5.000000000	0.001017897	0.000006986	0.998908695	-0.004268674	0.000284565	0.000039123	-0.000118280	-0.000009433
		0.998908727	-0.004268658	0.001012798	0.000007404	-0.000118248	-0.000009444	0.000284249	0.000038761
		0.000316410	0.000043923	-0.000077787	-0.000005920	0.001023819	0.000013985	0.998908766	-0.004233179
		-0.000077820	-0.000005914	0.000316684	0.000043508	0.998908739	-0.004233194	0.001020700	0.000014246
10.000000000	0.001521194	0.000020881	0.998319734	-0.008532469	0.000516873	0.000144863	-0.000168565	-0.000027059
		0.998319801	-0.008532438	0.001511007	0.000022092	-0.000168501	-0.000027088	0.000516438	0.000143515
		0.000543227	0.000153783	-0.000135309	-0.000020715	0.001531879	0.000041856	0.998320878	-0.008461528
		-0.000135379	-0.000020695	0.000544040	0.000152361	0.998320823	-0.008461558	0.001525637	0.000042594
15.000000000	0.002024324	0.000041684	0.997712584	-0.012791310	0.000721201	0.000313358	-0.000216471	-0.000052688
		0.997712685	-0.012791263	0.002009030	0.000044065	-0.000216369	-0.000052741	0.000721131	0.000310501
		0.000741364	0.000325583	-0.000190700	-0.000044222	0.002039273	0.000083606	0.997715101	-0.012684970
		-0.000190810	-0.000044183	0.000743262	0.000322683	0.997715018	-0.012685014	0.002029883	0.000085036
20.000000000	0.002527216	0.000069393	0.997087276	-0.017045117	0.000884998	0.000538360	-0.000261049	-0.000086027
		0.997087411	-0.017045056	0.002506785	0.000073319	-0.000260901	-0.000086110	0.000885975	0.000533624
		0.000898312	0.000552918	-0.000242972	-0.000076179	0.002545719	0.000139220	0.997091467	-0.016903430
		-0.000243131	-0.000076113	0.000902059	0.000548252	0.997091356	-0.016903489	0.002533143	0.000141557
25.000000000	0.003029800	0.000104006	0.996443842	-0.021293814	0.000996971	0.000811406	-0.000301383	-0.000126685
		0.996444012	-0.021293738	0.003004193	0.000109852	-0.000301180	-0.000126800	0.000999837	0.000804630
		0.001002860	0.000827159	-0.000291171	-0.000116222	0.003050930	0.000208678	0.996450007	-0.021116832
		-0.000291386	-0.000116126	0.001009384	0.000820682	0.996449868	-0.021116905	0.003035123	0.000212134
30.000000000	0.003532004	0.000145519	0.995782314	-0.025537322	0.001047453	0.001122051	-0.000336601	-0.000174172
		0.995782519	-0.025537233	0.003501174	0.000153660	-0.000336331	-0.000174323	0.001053155	0.001113327
		0.001045465	0.001137690	-0.000334378	-0.000163894	0.003554625	0.000291955	0.995790753	-0.025325101
		-0.000334661	-0.000163764	0.001055796	0.001129651	0.995790586	-0.025325188	0.003535528	0.000296744
35.000000000	0.004033757	0.000193930	0.995102725	-0.029775567	0.001028719	0.001458172	-0.000365884	-0.000227910
		0.995102965	-0.029775463	0.003997649	0.000204738	-0.000365534	-0.000228095	0.001038252	0.001447868
		0.001018574	0.001472222	-0.000371724	-0.000218643	0.004056520	0.000389023	0.995113736	-0.029528162
		-0.000372088	-0.000218479	0.001033772	0.001463192	0.995113541	-0.029528263	0.004034064	0.000395353
40.000000000	0.004534988	0.000249233	0.994405108	-0.034008469	0.000935266	0.001806302	-0.000388474	-0.000287232
		0.994405383	-0.034008352	0.004493537	0.000263081	-0.000388031	-0.000287450	0.000949599	0.001795088
		0.000916897	0.001817141	-0.000402396	-0.000279834	0.004556331	0.000499846	0.994418990	-0.033725941
		-0.000402854	-0.000279637	0.000937969	0.001808034	0.994418767	-0.033726054	0.004530439	0.000507924
45.000000000	0.005035627	0.000311424	0.993689496	-0.038235954	0.000764015	0.002152022	-0.000403683	-0.000351392
		0.993689806	-0.038235823	0.004988759	0.000328684	-0.000403131	-0.000351637	0.000784022	0.002140866
		0.000737620	0.002157909	-0.000425647	-0.000346746	0.005053778	0.000624384	0.993706546	-0.037918361
		-0.000426214	-0.000346520	0.000765433	0.002149976	0.993706294	-0.037918488	0.005024360	0.000634417
50.000000000	0.005535602	0.000380496	0.992955923	-0.042457944	0.000514462	0.002480375	-0.000410900	-0.000419573
		0.992956268	-0.042457800	0.005483236	0.000401539	-0.000410226	-0.000419837	0.000540852	0.002470531
		0.000480544	0.002479488	-0.000440800	-0.000418586	0.005548579	0.000762591	0.992976438	-0.042105349
		-0.000441491	-0.000418337	0.000515743	0.002474301	0.992976158	-0.042105489	0.005515535	0.000774781
55.000000000	0.005794097	0.000163054	0.992498673	-0.046311154	0.000557324	0.002705073	-0.000426207	-0.000434932
		0.992498997	-0.046311027	0.005727931	0.000184631	-0.000425388	-0.000435236	0.000589633	0.002693421
		0.000523932	0.002707443	-0.000453568	-0.000431253	0.005796859	0.000573840	0.992523163	-0.045923856
		-0.000454405	-0.000430961	0.000565016	0.002699918	0.992522900	-0.045923978	0.005754956	0.000586117
60.000000000	0.006043656	-0.000074705	0.992026475	-0.050161446	0.000599591	0.002929889	-0.000441523	-0.000450281
		0.992026778	-0.050161336	0.005963669	-0.000051617	-0.000440554	-0.000450631	0.000638412	0.002916311
		0.000567192	0.002935422	-0.000466320	-0.000443937	0.006038483	0.000367332	0.992055208	-0.049739491
		-0.000467308	-0.000443595	0.000614650	0.002925458	0.992054962	-0.049739595	0.005987697	0.000380322
65.000000000	0.006283059	-0.000332398	0.991539345	-0.054008763	0.000641262	0.003154821	-0.000456849	-0.000465621
		0.991539626	-0.054008670	0.006189279	-0.000306821	-0.000455724	-0.000466021	0.000687189	0.003139201
		0.000610324	0.003163425	-0.000479056	-0.000456636	0.006272462	0.000143312	0.991572588	-0.053552199
		-0.000480200	-0.000456242	0.000664644	0.003150920	0.991572361	-0.053552286	0.006212803	0.000157642
70.000000000	0.006511100	-0.000609576	0.991037298	-0.057853048	0.000682337	0.003379869	-0.000472184	-0.000480952
		0.991037558	-0.057852971	0.006403605	-0.000580531	-0.000470899	-0.000481408	0.000735963	0.003362092
		0.000653327	0.003391453	-0.000491777	-0.000469352	0.006497815	-0.000097925	0.991075320	-0.057361923
		-0.000493080	-0.000468900	0.000714998	0.003376305	0.991075110	-0.057361992	0.006429323	-0.000081628
75.000000000	0.006726596	-0.000905724	0.990520352	-0.061694241	0.000722815	0.003605031	-0.000487529	-0.000496273
		0.990520590	-0.061694180	0.006605513	-0.000872236	-0.000486077	-0.000496790	0.000784735	0.003584984
		0.000696202	0.003619506	-0.000504481	-0.000482084	0.006713572	-0.000356035	0.990563420	-0.061168607
		-0.000505950	-0.000481570	0.000765711	0.003601611	0.990563228	-0.061168659	0.006636321	-0.000337144
80.000000000	0.006928388	-0.001220265	0.989988522	-0.065532286	0.000762697	0.003830306	-0.000502883	-0.000511585
		0.989988739	-0.065532241	0.006793893	-0.001181362	-0.000501260	-0.000512169	0.000833505	0.003807876
		0.000738949	0.003847583	-0.000517170	-0.000494832	0.006918779	-0.000630625	0.990036902	-0.064972194
		-0.000518808	-0.000494251	0.000816784	0.003826838	0.990036728	-0.064972229	0.006832875	-0.000608517
85.000000000	0.007115340	-0.001552560	0.989441825	-0.069367124	0.000801983	0.004055692	-0.000518247	-0.000526887
		0.989442020	-0.069367095	0.006967659	-0.001507276	-0.000516447	-0.000527543	0.000882272	0.004030768
		0.000781567	0.004075684	-0.000529843	-0.000507596	0.007112498	-0.000921253	0.989495785	-0.068772629
		-0.000531655	-0.000506944	0.000868216	0.004051985	0.989495628	-0.068772647	0.007018078	-0.000895310
90.000000000	0.007286351	-0.001901905	0.988880278	-0.073198699	0.000840671	0.004281190	-0.000533621	-0.000542180
		0.988880452	-0.073198686	0.007125758	-0.001849283	-0.000531639	-0.000542913	0.000931038	0.004253661
		0.000824057	0.004303810	-0.000542500	-0.000520376	0.007293809	-0.001227432	0.988940083	-0.072569855
		-0.000544490	-0.000519648	0.000920008	0.004277053	0.988939945	-0.072569857	0.007191044	-0.001197041
95.000000000	0.007440349	-0.002267539	0.988303899	-0.077026952	0.000878762	0.004506796	-0.000549004	-0.000557463
		0.988304050	-0.077026955	0.007267169	-0.002206633	-0.000546834	-0.000558279	0.000979801	0.004476554
		0.000866418	0.004531959	-0.000555141	-0.000533173	0.007461813	-0.001548626	0.988369814	-0.076363817
		-0.000557315	-0.000532365	0.000972160	0.004502041	0.988369694	-0.076363802	0.007350905	-0.001513183
100.000000000	0.007576301	-0.002648642	0.987712704	-0.080851827	0.000916256	0.004732511	-0.000564397	-0.000572736
		0.987712833	-0.080851845	0.007390905	-0.002578517	-0.000562034	-0.000573641	0.001028562	0.004699448
		0.000908651	0.004760133	-0.000567767	-0.000545985	0.007615635	-0.001884255	0.987784994	-0.080154458
		-0.000570128	-0.000545092	0.001024670	0.004726949	0.987784893	-0.080154428	0.007496817	-0.001843162
105.000000000	0.007748002	-0.002960984	0.987166328	-0.084603014	0.000965668	0.004952312	-0.000577003	-0.000586272
		0.987166297	-0.084603022	0.007542797	-0.002886418	-0.000574276	-0.000587132	0.001089062	0.004914353
		0.000957331	0.004974336	-0.000578251	-0.000560614	0.007782777	-0.002162635	0.987245609	-0.083871694
		-0.000580858	-0.000559617	0.001084172	0.004937229	0.987245635	-0.083871630	0.007651726	-0.002119608
110.000000000	0.007907807	-0.003285292	0.986605708	-0.088351208	0.001015667	0.005171989	-0.000589591	-0.000599825
		0.986605519	-0.088351206	0.007682697	-0.003205585	-0.000586495	-0.000600645	0.001150693	0.005128973
		0.001006661	0.005188402	-0.000588626	-0.000575338	0.007940058	-0.002452015	0.986692240	-0.087585997
		-0.000591486	-0.000574231	0.001144812	0.005147222	0.986692391	-0.087585899	0.007796711	-0.002406602
115.000000000	0.008055172	-0.003621135	0.986030861	-0.092096355	0.001066255	0.005391541	-0.000602163	-0.000613393
		0.986030512	-0.092096340	0.007810070	-0.003535569	-0.000598691	-0.000614178	0.001213452	0.005343302
		0.001056639	0.005402329	-0.000598890	-0.000590155	0.008086990	-0.002752055	0.986124900	-0.091297312
		-0.000602010	-0.000588934	0.001206590	0.005356923	0.986125178	-0.091297183	0.007931288	-0.002703797
120.000000000	0.008189569	-0.003968060	0.985441802	-0.095838399	0.001117430	0.005610967	-0.000614718	-0.000626978
		0.985441294	-0.095838372	0.007924399	-0.003875902	-0.000610865	-0.000627733	0.001277339	0.005557337
		0.001107266	0.005616117	-0.000609043	-0.000605065	0.008223093	-0.003062394	0.985543604	-0.095005589
		-0.000612430	-0.000603726	0.001269504	0.005566327	0.985544009	-0.095005429	0.008054988	-0.003010823
125.000000000	0.008310486	-0.004325594	0.984838545	-0.099577289	0.001169192	0.005830265	-0.000627256	-0.000640578
		0.984837877	-0.099577246	0.008025182	-0.004226092	-0.000623017	-0.000641309	0.001342352	0.005771073
		0.001158541	0.005829764	-0.000619085	-0.000620067	0.008347904	-0.003382655	0.984948367	-0.098710775
		-0.000622746	-0.000618606	0.001333554	0.005775429	0.984948899	-0.098710585	0.008167353	-0.003327295
130.000000000	0.008417427	-0.004693242	0.984221106	-0.103312969	0.001221541	0.006049435	-0.000639776	-0.000654195
		0.984220280	-0.103312911	0.008111938	-0.004585630	-0.000635145	-0.000654906	0.001408491	0.005984505
		0.001210465	0.006043268	-0.000629014	-0.000635160	0.008460967	-0.003712440	0.984339204	-0.102412816
		-0.000632956	-0.000633574	0.001398738	0.005984226	0.984339863	-0.102412597	0.008267941	-0.003652807
135.000000000	0.008509915	-0.005070492	0.983589501	-0.107045386	0.001274477	0.006268476	-0.000652280	-0.000667829
		0.983588516	-0.107045311	0.008184200	-0.004953985	-0.000647251	-0.000668524	0.001475754	0.006197630
		0.001263036	0.006256628	-0.000638830	-0.000650345	0.008561845	-0.004051336	0.983716131	-0.106111662
		-0.000643062	-0.000648629	0.001465055	0.006192712	0.983716917	-0.106111415	0.008356321	-0.003986937
140.000000000	0.008587488	-0.005456810	0.982943746	-0.110774486	0.001328000	0.006487385	-0.000664767	-0.000681478
		0.982942602	-0.110774393	0.008241525	-0.005330605	-0.000659335	-0.000682163	0.001544140	0.006410443
		0.001316254	0.006469843	-0.000648533	-0.000665620	0.008650112	-0.004398911	0.983079162	-0.109807259
		-0.000653061	-0.000663769	0.001532504	0.006400883	0.983080077	-0.109806985	0.008432080	-0.004329244
145.000000000	0.008649707	-0.005851647	0.982283857	-0.114500216	0.001382108	0.006706162	-0.000677236	-0.000695143
		0.982282554	-0.114500104	0.008283487	-0.005714924	-0.000671395	-0.000695824	0.001613648	0.006622939
		0.001370120	0.006682910	-0.000658123	-0.000680984	0.008725359	-0.004754717	0.982428314	-0.113499556
		-0.000662954	-0.000678996	0.001601084	0.006608735	0.982429356	-0.113499255	0.008494818	-0.004679272
150.000000000	0.008696149	-0.006254433	0.981609850	-0.118222522	0.001436803	0.006924807	-0.000689689	-0.000708825
		0.981608389	-0.118222389	0.008309683	-0.006106353	-0.000683433	-0.000709505	0.001684277	0.006835114
		0.001424632	0.006895829	-0.000667597	-0.000696437	0.008787190	-0.005118288	0.981763602	-0.117188499
		-0.000672739	-0.000694308	0.001670793	0.006816262	0.981764773	-0.117188174	0.008544151	-0.005036548
155.000000000	0.008816130	-0.006607537	0.980957923	-0.121915348	0.001495729	0.007134486	-0.000698419	-0.000720377
		0.980956489	-0.121915145	0.008403624	-0.006450712	-0.000691784	-0.000721265	0.001758048	0.007038655
		0.001482253	0.007104374	-0.000676150	-0.000709998	0.008907029	-0.005434116	0.981121180	-0.120848311
		-0.000681583	-0.000707694	0.001743264	0.007019083	0.981122356	-0.120848036	0.008646324	-0.005347464
160.000000000	0.008925494	-0.006967704	0.980292107	-0.125604932	0.001555529	0.007343950	-0.000707109	-0.000731963
		0.980290702	-0.125604659	0.008486688	-0.006801608	-0.000700087	-0.000733064	0.001833123	0.007241795
		0.001540697	0.007312719	-0.000684622	-0.000723622	0.009017553	-0.005756895	0.980465118	-0.124504951
		-0.000690352	-0.000721140	0.001816989	0.007221524	0.980466300	-0.124504727	0.008739048	-0.005664936
165.000000000	0.009024011	-0.007334654	0.979612417	-0.129291222	0.001616203	0.007553195	-0.000715761	-0.000743583
		0.979611041	-0.129290878	0.008558645	-0.007158736	-0.000708343	-0.000744902	0.001909498	0.007444530
		0.001599964	0.007520861	-0.000693011	-0.000737310	0.009118528	-0.006086375	0.979795432	-0.128158370
		-0.000699046	-0.000734645	0.001891967	0.007423578	0.979796618	-0.128158196	0.008822093	-0.005988699
170.000000000	0.009111457	-0.007708097	0.978918869	-0.132974165	0.001677751	0.007762220	-0.000724373	-0.000755236
		0.978917522	-0.132973752	0.008619272	-0.007521782	-0.000716551	-0.000756779	0.001987173	0.007646851
		0.001660054	0.007728797	-0.000701318	-0.000751060	0.009209730	-0.006422299	0.979112135	-0.131808515
		-0.000707665	-0.000748209	0.001968197	0.007625239	0.979113326	-0.131808392	0.008895234	-0.006318484
175.000000000	0.009187618	-0.008087737	0.978211478	-0.136653710	0.001740171	0.007971022	-0.000732945	-0.000766922
		0.978210161	-0.136653227	0.008668353	-0.007890426	-0.000724711	-0.000768694	0.002066145	0.007848754
		0.001720965	0.007936526	-0.000709542	-0.000764872	0.009290939	-0.006764403	0.978415244	-0.135455338
		-0.000716209	-0.000761832	0.002045677	0.007826501	0.978416439	-0.135455265	0.008958254	-0.006654014
180.000000000	0.009252285	-0.008473273	0.977490260	-0.140329804	0.001803463	0.008179597	-0.000741478	-0.000778641
		0.977488974	-0.140329251	0.008705683	-0.008264341	-0.000732823	-0.000780648	0.002146413	0.008050232
		0.001782697	0.008144045	-0.000717683	-0.000778746	0.009361942	-0.007112419	0.977704774	-0.139098786
		-0.000724676	-0.000775513	0.002124404	0.008027360	0.977705972	-0.139098764	0.009010943	-0.006995006
185.000000000	0.009305256	-0.008864398	0.976755232	-0.144002395	0.001867627	0.008387944	-0.000749971	-0.000790393
		0.976753976	-0.144001773	0.008731064	-0.008643197	-0.000740888	-0.000792640	0.002227975	0.008251279
		0.001845251	0.008351352	-0.000725741	-0.000792682	0.009422533	-0.007466070	0.976980739	-0.142738810
		-0.000733067	-0.000789252	0.002204378	0.008227808	0.976981941	-0.142738839	0.009053099	-0.007341171
190.000000000	0.009346340	-0.009260801	0.976006408	-0.147671432	0.001932661	0.008596059	-0.000758424	-0.000802178
		0.976005184	-0.147670741	0.008744307	-0.009026653	-0.000748904	-0.000804670	0.002310828	0.008451889
		0.001908624	0.008558443	-0.000733715	-0.000806678	0.009472514	-0.007825075	0.976243156	-0.146375358
		-0.000741382	-0.000803048	0.002285596	0.008427840	0.976244361	-0.146375438	0.009084529	-0.007692214
195.000000000	0.009375349	-0.009662162	0.975243807	-0.151336862	0.001998565	0.008803939	-0.000766838	-0.000813996
		0.975242614	-0.151336103	0.008745233	-0.009414366	-0.000756872	-0.000816739	0.002394971	0.008652055
		0.001972816	0.008765318	-0.000741606	-0.000820735	0.009511692	-0.008189146	0.975492041	-0.150008381
		-0.000749621	-0.000816902	0.002368056	0.008627451	0.975493249	-0.150008512	0.009105044	-0.008047832
200.000000000	0.009392108	-0.010068159	0.974467443	-0.154998635	0.002065338	0.009011583	-0.000775211	-0.000825847
		0.974466283	-0.154997807	0.008733671	-0.009805987	-0.000764792	-0.000828845	0.002480402	0.008851772
		0.002037827	0.008971972	-0.000749411	-0.000834852	0.009539884	-0.008557991	0.974727410	-0.153637829
		-0.000757782	-0.000830812	0.002451757	0.008826635	0.974728619	-0.153638010	0.009114466	-0.008407720
205.000000000	0.009463276	-0.010450158	0.973694353	-0.158637071	0.002133601	0.009213191	-0.000781893	-0.000837508
		0.973693266	-0.158636246	0.008773083	-0.010174837	-0.000771153	-0.000840828	0.002567403	0.009045887
		0.002105924	0.009174621	-0.000756850	-0.000847693	0.009615136	-0.008901933	0.973966401	-0.157244123
		-0.000765569	-0.000843417	0.002538755	0.009021656	0.973967560	-0.157244326	0.009168298	-0.008743536
210.000000000	0.009525151	-0.010836411	0.972907681	-0.162271884	0.002202791	0.009414534	-0.000788517	-0.000849211
		0.972906668	-0.162271062	0.008802845	-0.010547427	-0.000777449	-0.000852857	0.002655728	0.009239518
		0.002174958	0.009377003	-0.000764225	-0.000860579	0.009681886	-0.009250301	0.973192054	-0.160846878
		-0.000773301	-0.000856064	0.002627096	0.009216188	0.973193162	-0.160847103	0.009213438	-0.009083406
215.000000000	0.009577623	-0.011226726	0.972107444	-0.165903022	0.002272908	0.009615609	-0.000795083	-0.000860957
		0.972106505	-0.165902203	0.008822847	-0.010923541	-0.000783679	-0.000864931	0.002745374	0.009432657
		0.002244927	0.009579117	-0.000771537	-0.000873510	0.009740015	-0.009602912	0.972404383	-0.164446045
		-0.000780975	-0.000868752	0.002716778	0.009410223	0.972405440	-0.164446291	0.009249767	-0.009427133
220.000000000	0.009620585	-0.011620911	0.971293659	-0.169530434	0.002343949	0.009816413	-0.000801592	-0.000872744
		0.971292793	-0.169529620	0.008832986	-0.011302960	-0.000789843	-0.000877051	0.002836338	0.009625299
		0.002315832	0.009780959	-0.000778785	-0.000886487	0.009789406	-0.009959580	0.971603405	-0.168041573
		-0.000788593	-0.000881483	0.002807799	0.009603757	0.971604410	-0.168041840	0.009277170	-0.009774517
225.000000000	0.009653935	-0.012018767	0.970466341	-0.173154071	0.002415916	0.010016943	-0.000808042	-0.000884572
		0.970465549	-0.173153262	0.008833161	-0.011685465	-0.000795941	-0.000889216	0.002928619	0.009817436
		0.002387672	0.009982526	-0.000785969	-0.000899509	0.009829948	-0.010320117	0.970789136	-0.171633414
		-0.000796155	-0.000894255	0.002900156	0.009796780	0.970790090	-0.171633702	0.009295538	-0.010125355
230.000000000	0.009677576	-0.012420096	0.969625509	-0.176773881	0.002488806	0.010217195	-0.000814434	-0.000896442
