! freq	real(S11)	imag(S11)	real(S12)	imag(S12)	real(S13)	imag(S13)	
!     	real(S14)	imag(S14)	
!     	real(S21)	imag(S21)	real(S22)	imag(S22)	real(S23)	imag(S23)	
!     	real(S24)	imag(S24)	
!     	real(S31)	imag(S31)	real(S32)	imag(S32)	real(S33)	imag(S33)	
!     	real(S34)	imag(S34)	
!     	real(S41)	imag(S41)	real(S42)	imag(S42)	real(S43)	imag(S43)	
!     	real(S44)	imag(S44)	
!port1: p1  port2: p2  port3: p3  port4: p4
#  MHz  S  RI  R 50
0.000000000	0.000760033	0.000000000	0.999233120	-0.000000000	0.000029865	-0.000000000	-0.000097535	0.000000000
		0.999233109	-0.000000000	0.000760028	0.000000000	-0.000097544	0.000000000	0.000030354	0.000000000
		0.000062173	0.000000000	-0.000102594	0.000000000	0.000760439	0.000000000	0.999233274	-0.000000000
		-0.000102599	0.000000000	0.000061989	0.000000000	0.999233344	0.000000000	0.000760363	-0.000000000
5.000000000	0.001528613	0.000035442	0.998390533	-0.006074249	0.000373421	0.000050293	-0.000155015	-0.000009817
		0.998390521	-0.006074251	0.001530077	0.000035522	-0.000155068	-0.000009818	0.000373245	0.000049680
		0.000400595	0.000053840	-0.000160061	-0.000010706	0.001523275	0.000031365	0.998392882	-0.006028780
		-0.000160018	-0.000010706	0.000399849	0.000052999	0.998392868	-0.006028774	0.001521102	0.000031600
10.000000000	0.002295545	0.000106504	0.997511052	-0.012138246	0.000697927	0.000191470	-0.000211408	-0.000026885
		0.997511039	-0.012138250	0.002298472	0.000106779	-0.000211515	-0.000026891	0.000697562	0.000189045
		0.000719741	0.000197026	-0.000216298	-0.000029066	0.002284849	0.000094133	0.997516117	-0.012047411
		-0.000216209	-0.000029062	0.000718988	0.000194007	0.997516079	-0.012047398	0.002280498	0.000094793
15.000000000	0.003059592	0.000213121	0.996594770	-0.018191767	0.000985442	0.000418533	-0.000266035	-0.000051091
		0.996594757	-0.018191773	0.003063969	0.000213704	-0.000266195	-0.000051108	0.000985787	0.000413277
		0.001002001	0.000424583	-0.000270543	-0.000054945	0.003044161	0.000188257	0.996603099	-0.018055674
		-0.000270407	-0.000054934	0.001002289	0.000418261	0.996603038	-0.018055653	0.003037597	0.000189530
20.000000000	0.003819517	0.000355186	0.995641784	-0.024234588	0.001219116	0.000723349	-0.000318220	-0.000082266
		0.995641769	-0.024234596	0.003825326	0.000356191	-0.000318433	-0.000082299	0.001221456	0.000714530
		0.001230854	0.000728470	-0.000322046	-0.000088143	0.003800243	0.000313664	0.995653924	-0.024053350
		-0.000321863	-0.000088120	0.001233662	0.000718050	0.995653838	-0.024053322	0.003791417	0.000315738
25.000000000	0.004574089	0.000532556	0.994652187	-0.030266488	0.001383715	0.001094867	-0.000367305	-0.000120184
		0.994652172	-0.030266498	0.004581307	0.000534096	-0.000367569	-0.000120238	0.001389642	0.001082141
		0.001391363	0.001097786	-0.000370075	-0.000128393	0.004552130	0.000470253	0.994668684	-0.030040223
		-0.000369846	-0.000128353	0.001398516	0.001082918	0.994668575	-0.030040187	0.004540977	0.000473314
30.000000000	0.005322081	0.000745051	0.993626080	-0.036287244	0.001466084	0.001519419	-0.000412649	-0.000164564
		0.993626064	-0.036287257	0.005330679	0.000747236	-0.000412964	-0.000164644	0.001477403	0.001502907
		0.001470634	0.001519071	-0.000413924	-0.000175362	0.005298858	0.000657900	0.993647476	-0.036016075
		-0.000413650	-0.000175302	0.001484198	0.001499936	0.993647343	-0.036016031	0.005285302	0.000662129
35.000000000	0.006062270	0.000992450	0.992563560	-0.042296637	0.001455570	0.001981085	-0.000453637	-0.000215070
		0.992563542	-0.042296651	0.006072213	0.000995392	-0.000454001	-0.000215181	0.001474187	0.001961436
		0.001458231	0.001976659	-0.000452916	-0.000228656	0.006039469	0.000876451	0.992590397	-0.041980690
		-0.000452598	-0.000228571	0.001480376	0.001954041	0.992590241	-0.041980638	0.006023416	0.000882026
40.000000000	0.006793442	0.001274497	0.991464727	-0.048294445	0.001344372	0.002462133	-0.000489683	-0.000271317
		0.991464709	-0.048294461	0.006804691	0.001278304	-0.000490093	-0.000271463	0.001372169	0.002440555
		0.001346515	0.002453110	-0.000486411	-0.000287820	0.006773007	0.001125727	0.991497545	-0.047933854
		-0.000486050	-0.000287706	0.001379380	0.002428434	0.991497366	-0.047933793	0.006754351	0.001132822
45.000000000	0.007514390	0.001590897	0.990329683	-0.054280450	0.001127831	0.002943502	-0.000520230	-0.000332868
		0.990329664	-0.054280468	0.007526900	0.001595677	-0.000520685	-0.000333054	0.001166530	0.002921773
		0.001130927	0.002929686	-0.000513806	-0.000352343	0.007498523	0.001405523	0.990369021	-0.053875352
		-0.000513403	-0.000352196	0.001176463	0.002905022	0.990368818	-0.053875282	0.007477143	0.001414308
50.000000000	0.008223916	0.001941319	0.989158532	-0.060254433	0.000804624	0.003405328	-0.000544760	-0.000399241
		0.989158512	-0.060254453	0.008237637	0.001947177	-0.000545257	-0.000399472	0.000855655	0.003385777
		0.000810179	0.003386860	-0.000534544	-0.000421661	0.008215071	0.001715608	0.989204925	-0.059804970
		-0.000534102	-0.000421476	0.000869997	0.003364908	0.989204699	-0.059804891	0.008190833	0.001726245
55.000000000	0.008563012	0.001715237	0.988396877	-0.065692612	0.000871685	0.003704779	-0.000568058	-0.000409010
		0.988396903	-0.065692644	0.008581118	0.001722634	-0.000568675	-0.000409235	0.000933506	0.003681835
		0.000879780	0.003692813	-0.000555462	-0.000425533	0.008560899	0.001473689	0.988449990	-0.065200778
		-0.000554899	-0.000425348	0.000950681	0.003666953	0.988449762	-0.065200685	0.008530274	0.001484859
60.000000000	0.008895934	0.001468213	0.987605338	-0.071124215	0.000938180	0.004004359	-0.000591557	-0.000418414
		0.987605410	-0.071124259	0.008918529	0.001476923	-0.000592298	-0.000418628	0.001011816	0.003977775
		0.000948820	0.003998897	-0.000576594	-0.000428896	0.008899533	0.001209373	0.987665637	-0.070590106
		-0.000575908	-0.000428715	0.001031765	0.003968891	0.987665405	-0.070589999	0.008862535	0.001221562
65.000000000	0.009221644	0.001200417	0.986783963	-0.076549075	0.001004111	0.004304068	-0.000615254	-0.000427450
		0.986784081	-0.076549132	0.009248826	0.001210209	-0.000616120	-0.000427647	0.001090584	0.004273595
		0.001017299	0.004305110	-0.000597930	-0.000431742	0.009229819	0.000922880	0.986851913	-0.075972794
		-0.000597119	-0.000431573	0.001113249	0.004270724	0.986851678	-0.075972673	0.009186488	0.000936574
70.000000000	0.009539112	0.000912063	0.985932805	-0.081967030	0.001069475	0.004603904	-0.000639143	-0.000436116
		0.985932968	-0.081967101	0.009570969	0.000922703	-0.000640137	-0.000436289	0.001169810	0.004569295
		0.001085215	0.004611452	-0.000619459	-0.000434068	0.009550610	0.000614483	0.986008867	-0.081348681
		-0.000618522	-0.000433916	0.001195133	0.004572451	0.986008629	-0.081348546	0.009501013	0.000630165
75.000000000	0.009847314	0.000603414	0.985051913	-0.087377917	0.001134274	0.004903868	-0.000663220	-0.000444409
		0.985052122	-0.087378001	0.009883925	0.000614660	-0.000664344	-0.000444553	0.001249495	0.004864876
		0.001152569	0.004917922	-0.000641171	-0.000435869	0.009860768	0.000284507	0.985136550	-0.086717609
		-0.000640106	-0.000435740	0.001277416	0.004874071	0.985136310	-0.086717459	0.009805000	0.000302658
80.000000000	0.010145232	0.000274777	0.984141340	-0.092781571	0.001198508	0.005203958	-0.000687481	-0.000452327
		0.984141594	-0.092781670	0.010186669	0.000286387	-0.000688737	-0.000452435	0.001329638	0.005160335
		0.001219361	0.005224519	-0.000663055	-0.000437139	0.010159167	-0.000066668	0.984235012	-0.092079417
		-0.000661861	-0.000437040	0.001360100	0.005175584	0.984234770	-0.092079254	0.010097349	-0.000045572
85.000000000	0.010431862	-0.000073493	0.983201138	-0.098177831	0.001262175	0.005504174	-0.000711920	-0.000459867
		0.983201438	-0.098177945	0.010478187	-0.000061770	-0.000713311	-0.000459933	0.001410239	0.005455673
		0.001285591	0.005531244	-0.000685101	-0.000437874	0.010444694	-0.000438610	0.983304306	-0.097433948
		-0.000683776	-0.000437812	0.001443183	0.005476990	0.983304061	-0.097433770	0.010376974	-0.000414098
90.000000000	0.010706211	-0.000440999	0.982231363	-0.103566534	0.001325275	0.005804514	-0.000736534	-0.000467027
		0.982231708	-0.103566664	0.010757477	-0.000429413	-0.000738061	-0.000467045	0.001491297	0.005750890
		0.001351258	0.005838094	-0.000707297	-0.000438071	0.010716254	-0.000830835	0.982344485	-0.102781041
		-0.000705841	-0.000438051	0.001526666	0.005778288	0.982344237	-0.102780849	0.010642806	-0.000802445
95.000000000	0.010967299	-0.000827296	0.981232068	-0.108947518	0.001387810	0.006104978	-0.000761317	-0.000473803
		0.981232458	-0.108947663	0.011023552	-0.000816104	-0.000762982	-0.000473768	0.001572813	0.006045984
		0.001416362	0.006145069	-0.000729634	-0.000437724	0.010972770	-0.001242808	0.981355601	-0.108120540
		-0.000728046	-0.000437754	0.001610548	0.006079477	0.981355351	-0.108120334	0.010893794	-0.001210084
100.000000000	0.011214166	-0.001231897	0.980203310	-0.114320621	0.001449778	0.006405565	-0.000786265	-0.000480195
		0.980203744	-0.114320783	0.011275439	-0.001221356	-0.000788070	-0.000480099	0.001654787	0.006340955
		0.001480903	0.006452168	-0.000752099	-0.000436830	0.011213185	-0.001673941	0.980337709	-0.113452286
		-0.000750378	-0.000436916	0.001694830	0.006380558	0.980337457	-0.113452065	0.011128906	-0.001636439
105.000000000	0.011420407	-0.001580071	0.979238970	-0.119586306	0.001535504	0.006695332	-0.000795973	-0.000480763
		0.979239594	-0.119586503	0.011490937	-0.001570178	-0.000797620	-0.000480614	0.001759398	0.006622061
		0.001567469	0.006737241	-0.000759236	-0.000444128	0.011429036	-0.002041701	0.979384283	-0.118676971
		-0.000757272	-0.000443535	0.001799977	0.006656788	0.979383991	-0.118676775	0.011333326	-0.002000216
110.000000000	0.011615746	-0.001940765	0.978246354	-0.124844900	0.001622899	0.006984658	-0.000805705	-0.000481246
		0.978247169	-0.124845135	0.011695552	-0.001931948	-0.000807194	-0.000481047	0.001866520	0.006902362
		0.001655745	0.007021852	-0.000766334	-0.000451474	0.011632808	-0.002423130	0.978403024	-0.123894688
		-0.000764137	-0.000450193	0.001907616	0.006932203	0.978402691	-0.123894516	0.011525824	-0.002377033
115.000000000	0.011799644	-0.002313637	0.977225511	-0.130096251	0.001711961	0.007273537	-0.000815462	-0.000481645
		0.977226515	-0.130096526	0.011888730	-0.002306327	-0.000816790	-0.000481399	0.001976150	0.007181841
		0.001745730	0.007305995	-0.000773394	-0.000458868	0.011823896	-0.002817831	0.977393980	-0.129105289
		-0.000770973	-0.000456888	0.002017742	0.007206785	0.977393606	-0.129105141	0.011705822	-0.002766498
120.000000000	0.011971572	-0.002698322	0.976176490	-0.135340209	0.001802688	0.007561961	-0.000825241	-0.000481960
		0.976177684	-0.135340526	0.012069927	-0.002692951	-0.000826409	-0.000481669	0.002088281	0.007460481
		0.001837421	0.007589662	-0.000780416	-0.000466310	0.012001709	-0.003225385	0.976357197	-0.134308625
		-0.000777779	-0.000463621	0.002130349	0.007480519	0.976356782	-0.134308500	0.011872753	-0.003168199
125.000000000	0.012131013	-0.003094438	0.975099341	-0.140576622	0.001895078	0.007849924	-0.000835043	-0.000482190
		0.975100724	-0.140576983	0.012238611	-0.003091438	-0.000836050	-0.000481856	0.002202909	0.007738266
		0.001930817	0.007872845	-0.000787398	-0.000473800	0.012165671	-0.003645348	0.975292726	-0.139504549
		-0.000784556	-0.000470393	0.002245434	0.007753387	0.975292268	-0.139504447	0.012026064	-0.003581700
130.000000000	0.012277462	-0.003501581	0.973994116	-0.145805340	0.001989129	0.008137417	-0.000844867	-0.000482336
		0.973995687	-0.145805746	0.012394264	-0.003501387	-0.000845712	-0.000481961	0.002320027	0.008015179
		0.002025915	0.008155536	-0.000794342	-0.000481338	0.012315220	-0.004077258	0.974200615	-0.144692914
		-0.000791303	-0.000477202	0.002362989	0.008025372	0.974200116	-0.144692834	0.012165219	-0.004006545
135.000000000	0.012410428	-0.003919328	0.972860865	-0.151026211	0.002084840	0.008424435	-0.000854713	-0.000482396
		0.972862624	-0.151026666	0.012536377	-0.003922374	-0.000855395	-0.000481983	0.002439631	0.008291203
		0.002122713	0.008437728	-0.000801247	-0.000488923	0.012449807	-0.004520625	0.973080915	-0.149873573
		-0.000798021	-0.000484048	0.002483009	0.008296459	0.973080374	-0.149873514	0.012289694	-0.004442257
140.000000000	0.012529431	-0.004347239	0.971699642	-0.156239086	0.002182209	0.008710968	-0.000864579	-0.000482370
		0.971701589	-0.156239591	0.012664459	-0.004353957	-0.000865097	-0.000481922	0.002561715	0.008566322
		0.002221209	0.008719413	-0.000808112	-0.000496555	0.012568903	-0.004974943	0.971933678	-0.155046378
		-0.000804708	-0.000490933	0.002605489	0.008566630	0.971933095	-0.155046341	0.012398983	-0.004888336
145.000000000	0.012634009	-0.004784854	0.970510500	-0.161443816	0.002281233	0.008997012	-0.000874466	-0.000482260
		0.970512634	-0.161444372	0.012778030	-0.004795677	-0.000874820	-0.000481778	0.002686273	0.008840519
		0.002321402	0.009000584	-0.000814937	-0.000504235	0.012671993	-0.005439681	0.970758956	-0.160211185
		-0.000811365	-0.000497854	0.002730423	0.008835870	0.970758330	-0.160211169	0.012492594	-0.005344264
150.000000000	0.012723711	-0.005231694	0.969293493	-0.166640249	0.002381910	0.009282558	-0.000884372	-0.000482063
		0.969295813	-0.166640860	0.012876626	-0.005247054	-0.000884561	-0.000481551	0.002813299	0.009113778
		0.002423288	0.009281233	-0.000821722	-0.000511962	0.012758582	-0.005914291	0.969556801	-0.165367846
		-0.000817992	-0.000504813	0.002857805	0.009104161	0.969556132	-0.165367850	0.012570056	-0.005809504
155.000000000	0.012860516	-0.005630283	0.968101995	-0.171794573	0.002485982	0.009555743	-0.000890164	-0.000484053
		0.968104291	-0.171795279	0.013022692	-0.005646042	-0.000890625	-0.000483472	0.002943616	0.009375139
		0.002526406	0.009551732	-0.000830107	-0.000516893	0.012901975	-0.006333321	0.968379960	-0.170482714
		-0.000825905	-0.000510071	0.002987156	0.009362920	0.968379275	-0.170482692	0.012702620	-0.006223740
160.000000000	0.012985684	-0.006037646	0.966883099	-0.176940905	0.002591900	0.009828333	-0.000895960	-0.000486032
		0.966885370	-0.176941707	0.013157270	-0.006054018	-0.000896695	-0.000485378	0.003076520	0.009635448
		0.002631268	0.009821666	-0.000838493	-0.000521819	0.013032899	-0.006761596	0.967176146	-0.175589736
		-0.000833814	-0.000515333	0.003118985	0.009620663	0.967175446	-0.175589689	0.012822731	-0.006646896
165.000000000	0.013098889	-0.006453459	0.965636857	-0.182079100	0.002699663	0.010100321	-0.000901761	-0.000487999
		0.965639103	-0.182079998	0.013280037	-0.006470666	-0.000902771	-0.000487271	0.003212004	0.009894686
		0.002737874	0.010091026	-0.000846883	-0.000526741	0.013151015	-0.007198765	0.965945411	-0.180688771
		-0.000841720	-0.000520600	0.003253286	0.009877372	0.965944696	-0.180688699	0.012930055	-0.007078616
170.000000000	0.013199817	-0.006877386	0.964363322	-0.187209014	0.002809266	0.010371697	-0.000907568	-0.000489955
		0.964365540	-0.187210007	0.013390675	-0.006895660	-0.000908853	-0.000489150	0.003350059	0.010152834
		0.002846219	0.010359805	-0.000855275	-0.000531659	0.013255994	-0.007644466	0.964687804	-0.185779676
		-0.000849622	-0.000525873	0.003390051	0.010133031	0.964687074	-0.185779579	0.013024267	-0.007518536
175.000000000	0.013288159	-0.007309082	0.963062546	-0.192330502	0.002920707	0.010642451	-0.000913379	-0.000491900
		0.963064736	-0.192331589	0.013488877	-0.007328665	-0.000914941	-0.000491016	0.003490680	0.010409874
		0.002956302	0.010627994	-0.000863669	-0.000536572	0.013347516	-0.008098330	0.963403377	-0.190862311
		-0.000857521	-0.000531151	0.003529275	0.010387621	0.963402633	-0.190862188	0.013105053	-0.007966279
180.000000000	0.013363618	-0.007748192	0.961734582	-0.197443418	0.003033983	0.010912575	-0.000919195	-0.000493834
		0.961736745	-0.197444600	0.013574343	-0.007769335	-0.000921034	-0.000492867	0.003633857	0.010665786
		0.003068120	0.010895584	-0.000872066	-0.000541482	0.013425272	-0.008559975	0.962092184	-0.195936534
		-0.000865417	-0.000536434	0.003670950	0.010641126	0.962091426	-0.195936384	0.013172107	-0.008421461
185.000000000	0.013425907	-0.008194352	0.960379487	-0.202547619	0.003149091	0.011182058	-0.000925016	-0.000495756
		0.960381619	-0.202548895	0.013646783	-0.008217315	-0.000927133	-0.000494705	0.003779585	0.010920552
		0.003181670	0.011162567	-0.000880465	-0.000546387	0.013488962	-0.009029009	0.960754276	-0.201002204
		-0.000873309	-0.000541723	0.003815068	0.010893527	0.960753504	-0.201002028	0.013225137	-0.008883686
190.000000000	0.013474747	-0.008647188	0.958997314	-0.207642960	0.003266028	0.011450893	-0.000930842	-0.000497668
		0.958999416	-0.207644330	0.013705918	-0.008672243	-0.000933238	-0.000496528	0.003927854	0.011174154
		0.003296949	0.011428936	-0.000888868	-0.000551288	0.013538297	-0.009505033	0.959389709	-0.206059180
		-0.000881198	-0.000547016	0.003961623	0.011144809	0.959388923	-0.206058978	0.013263860	-0.009352549
195.000000000	0.013509870	-0.009106319	0.957588120	-0.212729298	0.003384791	0.011719069	-0.000936672	-0.000499567
		0.957590190	-0.212730761	0.013751476	-0.009133746	-0.000939348	-0.000498338	0.004078657	0.011426572
		0.003413954	0.011694681	-0.000897272	-0.000556184	0.013573001	-0.009987637	0.957998536	-0.211107323
		-0.000889084	-0.000552315	0.004110608	0.011394952	0.957997737	-0.211107094	0.013288003	-0.009827637
200.000000000	0.013531020	-0.009571352	0.956151962	-0.217806491	0.003505378	0.011986578	-0.000942507	-0.000501456
		0.956154000	-0.217808047	0.013783196	-0.009601443	-0.000945464	-0.000500134	0.004231986	0.011677789
		0.003532683	0.011959794	-0.000905679	-0.000561077	0.013592807	-0.010476403	0.956580813	-0.216146492
		-0.000896966	-0.000557620	0.004262014	0.011643942	0.956580001	-0.216146237	0.013297307	-0.010308527
205.000000000	0.013592531	-0.010005757	0.954715657	-0.222847248	0.003627839	0.012245417	-0.000946589	-0.000503874
		0.954717624	-0.222848822	0.013857313	-0.010037130	-0.000949916	-0.000502192	0.004388188	0.011920134
		0.003654098	0.012217725	-0.000912485	-0.000563243	0.013661469	-0.010932512	0.955162962	-0.221149401
		-0.000903549	-0.000560506	0.004417288	0.011885194	0.955162166	-0.221149110	0.013352467	-0.010758129
210.000000000	0.013642365	-0.010445846	0.953252789	-0.227878880	0.003752163	0.012503540	-0.000950669	-0.000506295
		0.953254685	-0.227880471	0.013919971	-0.010478742	-0.000954369	-0.000504248	0.004546949	0.012161191
		0.003777307	0.012474965	-0.000919300	-0.000565388	0.013717923	-0.011394547	0.953718957	-0.226143357
		-0.000910138	-0.000563381	0.004575057	0.012125187	0.953718178	-0.226143030	0.013395353	-0.011213353
215.000000000	0.013680330	-0.010891330	0.951763415	-0.232901245	0.003878345	0.012760938	-0.000954749	-0.000508716
		0.951765240	-0.232902852	0.013970978	-0.010926004	-0.000958823	-0.000506301	0.004708259	0.012400940
		0.003902308	0.012731505	-0.000926125	-0.000567513	0.013761977	-0.011862214	0.952248854	-0.231128222
		-0.000916734	-0.000566243	0.004735313	0.012363901	0.952248091	-0.231127860	0.013425776	-0.011673896
220.000000000	0.013706241	-0.011341917	0.950247592	-0.237914204	0.004006381	0.013017599	-0.000958827	-0.000511140
		0.950249346	-0.237915828	0.014010149	-0.011378633	-0.000963278	-0.000508353	0.004872110	0.012639360
		0.004029096	0.012987336	-0.000932958	-0.000569617	0.013793445	-0.012335211	0.950752708	-0.236103860
		-0.000923336	-0.000569093	0.004898048	0.012601316	0.950751963	-0.236103463	0.013443551	-0.012139449
225.000000000	0.013719921	-0.011797308	0.948705379	-0.242917618	0.004136268	0.013273515	-0.000962905	-0.000513565
		0.948707062	-0.242919257	0.014037305	-0.011836345	-0.000967734	-0.000510402	0.005038493	0.012876433
		0.004157669	0.013242449	-0.000939801	-0.000571700	0.013812149	-0.012813234	0.949230575	-0.241070136
		-0.000929944	-0.000571931	0.005063251	0.012837415	0.949229848	-0.241069703	0.013448505	-0.012609697
230.000000000	0.013721198	-0.012257202	0.947136833	-0.247911349	0.004268003	0.013528675	-0.000966981	-0.000515992
