! freq	real(S11)	imag(S11)	real(S12)	imag(S12)	real(S13)	imag(S13)	
!     	real(S14)	imag(S14)	
!     	real(S21)	imag(S21)	real(S22)	imag(S22)	real(S23)	imag(S23)	
!     	real(S24)	imag(S24)	
!     	real(S31)	imag(S31)	real(S32)	imag(S32)	real(S33)	imag(S33)	
!     	real(S34)	imag(S34)	
!     	real(S41)	imag(S41)	real(S42)	imag(S42)	real(S43)	imag(S43)	
!     	real(S44)	imag(S44)	
!port1: p1  port2: p2  port3: p3  port4: p4
#  MHz  S  RI  R 50
0.000000000	0.000467482	0.000000000	0.999525863	-0.000000000	0.000013491	-0.000000000	-0.000080261	0.000000000
		0.999525875	0.000000000	0.000467444	-0.000000000	-0.000080358	0.000000000	0.000013616	0.000000000
		0.000039862	-0.000000000	-0.000049850	0.000000000	0.000468612	0.000000000	0.999526559	-0.000000000
		-0.000049852	0.000000000	0.000039831	0.000000000	0.999526754	0.000000000	0.000468384	-0.000000000
5.000000000	0.000922131	-0.000008004	0.999005286	-0.003944849	0.000251507	0.000034667	-0.000127368	-0.000010763
		0.999005304	-0.003944830	0.000917631	-0.000007693	-0.000127355	-0.000010771	0.000251114	0.000034279
		0.000275822	0.000037959	-0.000098761	-0.000008342	0.000922675	-0.000003436	0.999006789	-0.003913013
		-0.000098781	-0.000008336	0.000275619	0.000037570	0.999006792	-0.003913020	0.000919046	-0.000003199
10.000000000	0.001376642	-0.000023901	0.998469147	-0.007885587	0.000475801	0.000133706	-0.000172850	-0.000029422
		0.998469173	-0.007885548	0.001367690	-0.000022933	-0.000172819	-0.000029443	0.000475269	0.000132218
		0.000497761	0.000139652	-0.000146272	-0.000024888	0.001376811	-0.000010254	0.998471609	-0.007821953
		-0.000146313	-0.000024871	0.000497660	0.000138241	0.998471617	-0.007821967	0.001369589	-0.000009535
15.000000000	0.001830911	-0.000047687	0.997917472	-0.011822152	0.000673426	0.000293429	-0.000215761	-0.000055760
		0.997917505	-0.011822094	0.001817527	-0.000045719	-0.000215709	-0.000055797	0.000673298	0.000290241
		0.000692833	0.000301368	-0.000191355	-0.000049432	0.001830903	-0.000020454	0.997921141	-0.011726760
		-0.000191420	-0.000049400	0.000693350	0.000298410	0.997921154	-0.011726782	0.001820093	-0.000019007
20.000000000	0.002284838	-0.000079360	0.997350285	-0.015754483	0.000832217	0.000507828	-0.000255137	-0.000089448
		0.997350325	-0.015754406	0.002267046	-0.000076048	-0.000255059	-0.000089506	0.000833267	0.000502516
		0.000849020	0.000517106	-0.000233006	-0.000081654	0.002284932	-0.000034037	0.997355411	-0.015627376
		-0.000233100	-0.000081605	0.000850882	0.000512247	0.997355429	-0.015627405	0.002270542	-0.000031616
25.000000000	0.002738318	-0.000118916	0.996767610	-0.019682519	0.000941230	0.000768743	-0.000290055	-0.000130053
		0.996767658	-0.019682424	0.002716152	-0.000113916	-0.000289943	-0.000130131	0.000944414	0.000761121
		0.000955513	0.000778744	-0.000270261	-0.000121122	0.002738878	-0.000051000	0.996774443	-0.019523740
		-0.000270391	-0.000121053	0.000959617	0.000771852	0.996774465	-0.019523776	0.002720919	-0.000047360
30.000000000	0.003191250	-0.000166348	0.996169473	-0.023606200	0.000991091	0.001066094	-0.000319638	-0.000177034
		0.996169529	-0.023606086	0.003164751	-0.000159317	-0.000319487	-0.000177135	0.000997487	0.001056261
		0.001003067	0.001076262	-0.000302206	-0.000167298	0.003192724	-0.000071345	0.996178260	-0.023415793
		-0.000302380	-0.000167208	0.001010416	0.001067479	0.996178287	-0.023415836	0.003171210	-0.000066241
35.000000000	0.003643530	-0.000221650	0.995555899	-0.027525464	0.000974314	0.001388163	-0.000343075	-0.000229758
		0.995555962	-0.027525331	0.003612749	-0.000212246	-0.000342875	-0.000229880	0.000985054	0.001376540
		0.000984301	0.001398031	-0.000327991	-0.000219542	0.003646450	-0.000095071	0.995566889	-0.027303475
		-0.000328216	-0.000219432	0.000995943	0.001387800	0.995566920	-0.027303525	0.003621396	-0.000088256
40.000000000	0.004095056	-0.000284814	0.994926913	-0.031440250	0.000885562	0.001721937	-0.000359623	-0.000287497
		0.994926985	-0.031440098	0.004060049	-0.000272696	-0.000359366	-0.000287640	0.000901750	0.001709282
		0.000893964	0.001731139	-0.000346835	-0.000277118	0.004100037	-0.000122176	0.994940354	-0.031186727
		-0.000347122	-0.000276991	0.000910913	0.001720226	0.994940389	-0.031186784	0.004071462	-0.000113407
45.000000000	0.004545727	-0.000355831	0.994282542	-0.035350499	0.000721852	0.002053473	-0.000368621	-0.000349445
		0.994282622	-0.035350328	0.004506559	-0.000340658	-0.000368297	-0.000349603	0.000744483	0.002040888
		0.000729134	0.002061765	-0.000358042	-0.000339207	0.004553466	-0.000152661	0.994298680	-0.035065490
		-0.000358399	-0.000339066	0.000752294	0.002051255	0.994298719	-0.035065555	0.004521392	-0.000141691
50.000000000	0.004995439	-0.000434690	0.993622811	-0.039256149	0.000482698	0.002368310	-0.000369496	-0.000414718
		0.993622900	-0.039255960	0.004952183	-0.000416123	-0.000369096	-0.000414886	0.000512577	0.002357225
		0.000489360	0.002375575	-0.000361005	-0.000404908	0.005006719	-0.000186524	0.993641892	-0.038939705
		-0.000361442	-0.000404759	0.000519447	0.002366862	0.993641936	-0.038939777	0.004971168	-0.000173109
55.000000000	0.005251485	-0.000690233	0.993213657	-0.042826775	0.000522155	0.002586188	-0.000384270	-0.000428776
		0.993213729	-0.042826610	0.005197209	-0.000670697	-0.000383780	-0.000428964	0.000557227	0.002573461
		0.000528854	0.002594378	-0.000376026	-0.000418326	0.005255289	-0.000422571	0.993235725	-0.042479142
		-0.000376551	-0.000418157	0.000564195	0.002583965	0.993235760	-0.042479210	0.005210495	-0.000408794
60.000000000	0.005494188	-0.000969010	0.992791675	-0.046394962	0.000560812	0.002804218	-0.000399129	-0.000442752
		0.992791731	-0.046394820	0.005428857	-0.000947832	-0.000398545	-0.000442964	0.000601497	0.002789777
		0.000567447	0.002813354	-0.000391162	-0.000431628	0.005492339	-0.000680294	0.992816954	-0.046016174
		-0.000391777	-0.000431435	0.000608480	0.002801167	0.992816980	-0.046016236	0.005438254	-0.000665577
65.000000000	0.005722008	-0.001270319	0.992356878	-0.049960663	0.000598670	0.003022399	-0.000414073	-0.000456644
		0.992356918	-0.049960544	0.005645611	-0.001246818	-0.000413392	-0.000456884	0.000645387	0.003006173
		0.000605138	0.003032499	-0.000406412	-0.000444813	0.005716465	-0.000959117	0.992385590	-0.049550756
		-0.000407120	-0.000444593	0.000652300	0.003018466	0.992385608	-0.049550812	0.005653065	-0.000942878
70.000000000	0.005933439	-0.001593367	0.991909278	-0.053523832	0.000635727	0.003240727	-0.000429101	-0.000470453
		0.991909301	-0.053523737	0.005845987	-0.001566853	-0.000428320	-0.000470724	0.000688897	0.003222648
		0.000641927	0.003251810	-0.000421775	-0.000457882	0.005926297	-0.001258386	0.991941646	-0.053082842
		-0.000422579	-0.000457630	0.000695655	0.003235863	0.991941655	-0.053082893	0.005853578	-0.001240036
75.000000000	0.006127018	-0.001937273	0.991448888	-0.057084423	0.000671983	0.003459201	-0.000444213	-0.000484178
		0.991448894	-0.057084351	0.006028548	-0.001907051	-0.000443328	-0.000484484	0.000732026	0.003439202
		0.000677813	0.003471285	-0.000437250	-0.000470833	0.006120494	-0.001577367	0.991485135	-0.056612388
		-0.000438154	-0.000470547	0.000738546	0.003453355	0.991485135	-0.056612434	0.006038476	-0.001556312
80.000000000	0.006301328	-0.002301069	0.990975720	-0.060642391	0.000707438	0.003677818	-0.000459409	-0.000497819
		0.990975709	-0.060642341	0.006191904	-0.002266437	-0.000458417	-0.000498164	0.000774775	0.003655834
		0.000712795	0.003690922	-0.000452838	-0.000483666	0.006297754	-0.001915249	0.991016068	-0.060139350
		-0.000453844	-0.000483341	0.000780972	0.003670942	0.991016060	-0.060139390	0.006206481	-0.001890890
85.000000000	0.006455005	-0.002683705	0.990489787	-0.064197689	0.000742092	0.003896577	-0.000474688	-0.000511375
		0.990489759	-0.064197662	0.006334716	-0.002643952	-0.000473586	-0.000511762	0.000817143	0.003872544
		0.000746874	0.003910716	-0.000468536	-0.000496380	0.006456817	-0.002271144	0.990534458	-0.063663682
		-0.000469648	-0.000496012	0.000822933	0.003888624	0.990534442	-0.063663717	0.006356357	-0.002242879
90.000000000	0.006586740	-0.003084049	0.989991103	-0.067750272	0.000775943	0.004115475	-0.000490050	-0.000524846
		0.989991058	-0.067750267	0.006455703	-0.003038459	-0.000488834	-0.000525280	0.000859130	0.004089331
		0.000780049	0.004130666	-0.000484346	-0.000508974	0.006596468	-0.002644094	0.990040319	-0.067185340
		-0.000485565	-0.000508559	0.000864429	0.004106400	0.990040294	-0.067185370	0.006486914	-0.002611316
95.000000000	0.006695284	-0.003500890	0.989479681	-0.071300093	0.000808992	0.004334510	-0.000505494	-0.000538232
		0.989479618	-0.071300112	0.006553645	-0.003448741	-0.000504162	-0.000538716	0.000900737	0.004306194
		0.000812319	0.004350769	-0.000500264	-0.000521447	0.006715543	-0.003033068	0.989533663	-0.070704280
		-0.000501594	-0.000520982	0.000905459	0.004324269	0.989533629	-0.070704304	0.006597013	-0.002995167
100.000000000	0.006779454	-0.003932943	0.988955534	-0.074847108	0.000841239	0.004553679	-0.000521020	-0.000551532
		0.988955454	-0.074847149	0.006627390	-0.003873507	-0.000519569	-0.000552070	0.000941963	0.004523134
		0.000843683	0.004571021	-0.000516292	-0.000533800	0.006812930	-0.003436968	0.989014503	-0.074220457
		-0.000517735	-0.000533280	0.000946024	0.004542230	0.989014461	-0.074220476	0.006685569	-0.003393331
105.000000000	0.006974883	-0.004285740	0.988436834	-0.078346340	0.000887026	0.004767321	-0.000532512	-0.000563619
		0.988436688	-0.078346430	0.006807614	-0.004218640	-0.000530845	-0.000564107	0.000997841	0.004733555
		0.000889034	0.004781419	-0.000529419	-0.000552170	0.007007177	-0.003765546	0.988501371	-0.077688811
		-0.000531015	-0.000551653	0.000998102	0.004755418	0.988501391	-0.077688789	0.006866923	-0.003716242
110.000000000	0.007156611	-0.004650824	0.987905756	-0.081842828	0.000933363	0.004980854	-0.000544004	-0.000575705
		0.987905545	-0.081842966	0.006974235	-0.004575562	-0.000542120	-0.000576146	0.001054752	0.004943730
		0.000934940	0.004991705	-0.000542395	-0.000570664	0.007188790	-0.004106379	0.987976079	-0.081154470
		-0.000544147	-0.000570149	0.001050841	0.004968456	0.987976162	-0.081154407	0.007035708	-0.004050974
115.000000000	0.007324145	-0.005027725	0.987362314	-0.085336528	0.000980248	0.005194275	-0.000555499	-0.000587789
		0.987362036	-0.085336715	0.007126767	-0.004943797	-0.000553393	-0.000588186	0.001112694	0.005153653
		0.000981402	0.005201877	-0.000555220	-0.000589281	0.007357266	-0.004459027	0.987438640	-0.084617389
		-0.000557130	-0.000588767	0.001104242	0.005181342	0.987438787	-0.084617287	0.007191429	-0.004397082
120.000000000	0.007477006	-0.005415953	0.986806520	-0.088827398	0.001027682	0.005407583	-0.000566995	-0.000599872
		0.986806176	-0.088827632	0.007264740	-0.005322848	-0.000564665	-0.000600227	0.001171666	0.005363322
		0.001028419	0.005411936	-0.000567893	-0.000608021	0.007512119	-0.004823033	0.986889067	-0.088077527
		-0.000569964	-0.000607506	0.001158303	0.005394074	0.986889277	-0.088077386	0.007333607	-0.004754105
125.000000000	0.007614731	-0.005815002	0.986238387	-0.092315393	0.001075665	0.005620778	-0.000578493	-0.000611953
		0.986237976	-0.092315674	0.007387699	-0.005712207	-0.000575937	-0.000612269	0.001231668	0.005572733
		0.001075991	0.005621879	-0.000580412	-0.000626882	0.007652878	-0.005197924	0.986327373	-0.091534842
		-0.000582648	-0.000626365	0.001213026	0.005606650	0.986327646	-0.091534662	0.007461777	-0.005121565
130.000000000	0.007736875	-0.006224351	0.985657930	-0.095800470	0.001124195	0.005833859	-0.000589992	-0.000624033
		0.985657451	-0.095800798	0.007495208	-0.006111343	-0.000587207	-0.000624312	0.001292698	0.005781881
		0.001124119	0.005831706	-0.000592777	-0.000645864	0.007779084	-0.005583210	0.985753570	-0.094989290
		-0.000595180	-0.000645343	0.001268408	0.005819070	0.985753908	-0.094989072	0.007575492	-0.005498967
135.000000000	0.007843008	-0.006643461	0.985065161	-0.099282584	0.001173273	0.006046824	-0.000601493	-0.000636110
		0.985064615	-0.099282958	0.007586847	-0.006519716	-0.000598475	-0.000636356	0.001354757	0.005990764
		0.001172801	0.006041415	-0.000604988	-0.000664965	0.007890299	-0.005978383	0.985167673	-0.098440830
		-0.000607561	-0.000664439	0.001324450	0.006031331	0.985168075	-0.098440575	0.007674318	-0.005885800
140.000000000	0.007932718	-0.007071782	0.984460094	-0.102761694	0.001222899	0.006259673	-0.000612996	-0.000648187
		0.984459480	-0.102762113	0.007662213	-0.006936766	-0.000609743	-0.000648402	0.001417842	0.006199377
		0.001222037	0.006251006	-0.000617043	-0.000684185	0.007986097	-0.006382923	0.984569694	-0.101889419
		-0.000619790	-0.000683653	0.001381152	0.006243432	0.984570160	-0.101889126	0.007757843	-0.006281535
145.000000000	0.008005610	-0.007508745	0.983842743	-0.106237755	0.001273072	0.006472404	-0.000624500	-0.000660262
		0.983842061	-0.106238219	0.007720924	-0.007361920	-0.000621009	-0.000660448	0.001481953	0.006407716
		0.001271828	0.006460478	-0.000628941	-0.000703522	0.008066072	-0.006796289	0.983959647	-0.105335015
		-0.000631865	-0.000702982	0.001438513	0.006455372	0.983960178	-0.105334685	0.007825667	-0.006685632
150.000000000	0.008061309	-0.007953770	0.983213122	-0.109710723	0.001323792	0.006685016	-0.000636006	-0.000672335
		0.983212372	-0.109711233	0.007762614	-0.007794594	-0.000632274	-0.000672496	0.001547088	0.006615778
		0.001322174	0.006669828	-0.000640683	-0.000722975	0.008129836	-0.007217932	0.983337545	-0.108777575
		-0.000643786	-0.000722427	0.001496532	0.006667148	0.983338142	-0.108777209	0.007877412	-0.007097532
155.000000000	0.008171802	-0.008366303	0.982621593	-0.113121054	0.001378835	0.006889569	-0.000643258	-0.000682800
		0.982620761	-0.113121535	0.007855058	-0.008199438	-0.000639271	-0.000683045	0.001616395	0.006815087
		0.001374962	0.006872518	-0.000652493	-0.000736615	0.008242737	-0.007605464	0.982753880	-0.112157901
		-0.000655837	-0.000736015	0.001562514	0.006869378	0.982754550	-0.112157573	0.007974669	-0.007479440
160.000000000	0.008269715	-0.008785543	0.982018238	-0.116528592	0.001434712	0.007093924	-0.000650470	-0.000693297
		0.982017324	-0.116529043	0.007934629	-0.008610702	-0.000646223	-0.000693629	0.001686975	0.007014023
		0.001428469	0.007075042	-0.000664296	-0.000750260	0.008343682	-0.007999885	0.982158598	-0.115535490
		-0.000667887	-0.000749605	0.001629661	0.007071285	0.982159341	-0.115535200	0.008059705	-0.007867987
165.000000000	0.008354842	-0.009211164	0.981403070	-0.119933295	0.001491425	0.007298081	-0.000657641	-0.000703826
		0.981402074	-0.119933716	0.008001113	-0.009028037	-0.000653129	-0.000704249	0.001758826	0.007212578
		0.001482695	0.007277398	-0.000676095	-0.000763909	0.008432449	-0.008400876	0.981551710	-0.118910302
		-0.000679936	-0.000763195	0.001697972	0.007272862	0.981552526	-0.118910050	0.008132298	-0.008262833
170.000000000	0.008426980	-0.009642836	0.980776100	-0.123335122	0.001548971	0.007502035	-0.000664772	-0.000714388
		0.980775023	-0.123335513	0.008054309	-0.009451089	-0.000659991	-0.000714903	0.001831946	0.007410748
		0.001537640	0.007479584	-0.000687887	-0.000777564	0.008508827	-0.008808116	0.980933229	-0.122282297
		-0.000691984	-0.000776787	0.001767445	0.007474106	0.980934118	-0.122282084	0.008192229	-0.008663635
175.000000000	0.008485937	-0.010080222	0.980137342	-0.126734034	0.001607352	0.007705785	-0.000671862	-0.000724982
		0.980136184	-0.126734393	0.008094020	-0.009879498	-0.000666808	-0.000725592	0.001906334	0.007608527
		0.001593302	0.007681598	-0.000699674	-0.000791223	0.008572610	-0.009221273	0.980303167	-0.125651436
		-0.000704030	-0.000790379	0.001838079	0.007675011	0.980304128	-0.125651261	0.008239293	-0.009070042
180.000000000	0.008531528	-0.010522980	0.979486808	-0.130129988	0.001666566	0.007909328	-0.000678912	-0.000735608
		0.979485569	-0.130130315	0.008120061	-0.010312897	-0.000673579	-0.000736316	0.001981988	0.007805907
		0.001649683	0.007883438	-0.000711455	-0.000804888	0.008623601	-0.009640014	0.979661537	-0.129017677
		-0.000716075	-0.000803973	0.001909873	0.007875572	0.979662570	-0.129017543	0.008273290	-0.009481698
185.000000000	0.008563577	-0.010970766	0.978824511	-0.133522944	0.001726612	0.008112662	-0.000685921	-0.000746266
		0.978823191	-0.133523239	0.008132256	-0.010750916	-0.000680305	-0.000747075	0.002058906	0.008002884
		0.001706780	0.008085102	-0.000723230	-0.000818558	0.008661610	-0.010063999	0.979008351	-0.132380983
		-0.000728120	-0.000817567	0.001982826	0.008075785	0.979009456	-0.132380889	0.008294033	-0.009898241
190.000000000	0.008581916	-0.011423227	0.978150464	-0.136912861	0.001787491	0.008315784	-0.000692889	-0.000756955
		0.978149064	-0.136913123	0.008130437	-0.011193180	-0.000686985	-0.000757867	0.002137087	0.008199451
		0.001764594	0.008286589	-0.000734999	-0.000832232	0.008686459	-0.010492882	0.978343621	-0.135741313
		-0.000740162	-0.000831163	0.002056935	0.008275644	0.978344797	-0.135741259	0.008301340	-0.010319304
195.000000000	0.008586384	-0.011880010	0.977464681	-0.140299699	0.001849200	0.008518691	-0.000699816	-0.000767677
		0.977463200	-0.140299928	0.008114446	-0.011639309	-0.000693620	-0.000768694	0.002216528	0.008395603
		0.001823125	0.008487897	-0.000746763	-0.000845912	0.008697975	-0.010926313	0.977667360	-0.139098627
		-0.000752204	-0.000844759	0.002132200	0.008475144	0.977668608	-0.139098615	0.008295041	-0.010744516
200.000000000	0.008576830	-0.012340754	0.976767173	-0.143683417	0.001911741	0.008721381	-0.000706702	-0.000778429
		0.976765613	-0.143683612	0.008084134	-0.012088917	-0.000700209	-0.000779555	0.002297228	0.008591332
		0.001882371	0.008689023	-0.000758521	-0.000859597	0.008695995	-0.011363937	0.976979582	-0.142452887
		-0.000764245	-0.000858357	0.002208619	0.008674280	0.976980901	-0.142452916	0.008274976	-0.011173497
205.000000000	0.008618809	-0.012771307	0.976094170	-0.147044464	0.001975455	0.008918476	-0.000711667	-0.000789282
		0.976092565	-0.147044588	0.008102289	-0.012510437	-0.000704921	-0.000790571	0.002378942	0.008780894
		0.001943427	0.008886151	-0.000767717	-0.000869943	0.008743229	-0.011769960	0.976316506	-0.145784764
		-0.000773723	-0.000868562	0.002288301	0.008865943	0.976317857	-0.145784871	0.008301427	-0.011572749
210.000000000	0.008650555	-0.013205272	0.975409605	-0.150402572	0.002040042	0.009115333	-0.000716567	-0.000800177
		0.975407955	-0.150402624	0.008109750	-0.012935040	-0.000709562	-0.000801631	0.002461930	0.008970009
		0.002005268	0.009083072	-0.000776913	-0.000880288	0.008780603	-0.012179588	0.975642070	-0.149113767
		-0.000783207	-0.000878761	0.002369260	0.009057176	0.975643452	-0.149113952	0.008317612	-0.011975320
215.000000000	0.008671981	-0.013642449	0.974713489	-0.153757701	0.002105502	0.009311948	-0.000721400	-0.000811115
		0.974711795	-0.153757680	0.008106432	-0.013362503	-0.000714132	-0.000812735	0.002546189	0.009158671
		0.002067893	0.009279783	-0.000786111	-0.000890632	0.008808025	-0.012592621	0.974956285	-0.152439856
		-0.000792695	-0.000888956	0.002451493	0.009247972	0.974957698	-0.152440119	0.008323437	-0.012380990
220.000000000	0.008683008	-0.014082636	0.974005835	-0.157109811	0.002171834	0.009508319	-0.000726167	-0.000822094
		0.974004097	-0.157109717	0.008092253	-0.013792600	-0.000718630	-0.000823882	0.002631717	0.009346872
		0.002131301	0.009476281	-0.000795309	-0.000900976	0.008825406	-0.013008859	0.974259164	-0.155762993
		-0.000802189	-0.000899146	0.002534997	0.009438326	0.974260607	-0.155763334	0.008318813	-0.012789535
225.000000000	0.008683557	-0.014525629	0.973286656	-0.160458862	0.002239038	0.009704442	-0.000730868	-0.000833116
		0.973284875	-0.160458696	0.008067137	-0.014225103	-0.000723056	-0.000835074	0.002718512	0.009534607
		0.002195492	0.009672565	-0.000804508	-0.000911319	0.008832660	-0.013428097	0.973550718	-0.159083139
		-0.000811689	-0.000909332	0.002619772	0.009628230	0.973552192	-0.159083559	0.008303655	-0.013200732
