! freq	real(S11)	imag(S11)	real(S12)	imag(S12)	real(S13)	imag(S13)	
!     	real(S14)	imag(S14)	
!     	real(S21)	imag(S21)	real(S22)	imag(S22)	real(S23)	imag(S23)	
!     	real(S24)	imag(S24)	
!     	real(S31)	imag(S31)	real(S32)	imag(S32)	real(S33)	imag(S33)	
!     	real(S34)	imag(S34)	
!     	real(S41)	imag(S41)	real(S42)	imag(S42)	real(S43)	imag(S43)	
!     	real(S44)	imag(S44)	
!port1: p1  port2: p2  port3: p3  port4: p4
#  MHz  S  RI  R 50
0.000000000	0.000394660	0.000000000	0.999600049	-0.000000000	0.000043155	-0.000000000	-0.000020229	0.000000000
		0.999600040	0.000000000	0.000394685	-0.000000000	-0.000019947	0.000000000	0.000043022	0.000000000
		0.000038182	0.000000000	-0.000030104	0.000000000	0.000395458	-0.000000000	0.999599932	0.000000000
		-0.000030104	0.000000000	0.000038172	-0.000000000	0.999600437	-0.000000000	0.000394988	0.000000000
5.000000000	0.000778159	0.000007606	0.999164163	-0.003290183	0.000235415	0.000033146	-0.000061957	-0.000004019
		0.999164154	-0.003290176	0.000780692	0.000007070	-0.000061947	-0.000004018	0.000235010	0.000033296
		0.000231016	0.000032208	-0.000069819	-0.000004873	0.000778924	0.000007051	0.999163658	-0.003288360
		-0.000069830	-0.000004875	0.000230696	0.000032353	0.999163659	-0.003288368	0.000781443	0.000006535
10.000000000	0.001161511	0.000022707	0.998717451	-0.006577495	0.000415646	0.000119411	-0.000103214	-0.000013447
		0.998717443	-0.006577480	0.001166572	0.000021132	-0.000103195	-0.000013443	0.000414568	0.000119877
		0.000411986	0.000117154	-0.000108809	-0.000015263	0.001162509	0.000021048	0.998716323	-0.006573847
		-0.000108829	-0.000015269	0.000411235	0.000117658	0.998716314	-0.006573862	0.001167542	0.000019530
15.000000000	0.001544606	0.000045302	0.998259929	-0.009861901	0.000572765	0.000255530	-0.000143336	-0.000028210
		0.998259921	-0.009861879	0.001552230	0.000042183	-0.000143307	-0.000028202	0.000570793	0.000256426
		0.000570329	0.000251672	-0.000146499	-0.000031078	0.001545874	0.000041988	0.998258190	-0.009856426
		-0.000146528	-0.000031091	0.000568921	0.000252698	0.998258171	-0.009856448	0.001553451	0.000038982
20.000000000	0.001927333	0.000075386	0.997791610	-0.013143365	0.000696574	0.000436244	-0.000181806	-0.000048190
		0.997791603	-0.013143336	0.001937571	0.000070220	-0.000181770	-0.000048176	0.000693403	0.000437602
		0.000695996	0.000430654	-0.000182326	-0.000052176	0.001928924	0.000069870	0.997789272	-0.013136060
		-0.000182362	-0.000052198	0.000693619	0.000432285	0.997789243	-0.013136089	0.001939089	0.000064890
25.000000000	0.002309583	0.000112954	0.997312509	-0.016421852	0.000777956	0.000654454	-0.000218121	-0.000073224
		0.997312502	-0.016421815	0.002322499	0.000105239	-0.000218077	-0.000073203	0.000773224	0.000656198
		0.000779983	0.000647196	-0.000215740	-0.000078361	0.002311564	0.000104689	0.997309584	-0.016412714
		-0.000215781	-0.000078393	0.000776257	0.000649410	0.997309545	-0.016412750	0.002324376	0.000097250
30.000000000	0.002691247	0.000157999	0.996822640	-0.019697326	0.000809188	0.000901430	-0.000251790	-0.000103105
		0.996822635	-0.019697282	0.002706920	0.000147234	-0.000251740	-0.000103075	0.000802501	0.000903358
		0.000814627	0.000892797	-0.000246211	-0.000109385	0.002693700	0.000146438	0.996819140	-0.019686353
		-0.000246256	-0.000109431	0.000809133	0.000895445	0.996819092	-0.019686397	0.002709230	0.000136057
35.000000000	0.003072213	0.000210513	0.996322019	-0.022969752	0.000784207	0.001167069	-0.000282343	-0.000137586
		0.996322014	-0.022969701	0.003090740	0.000196199	-0.000282287	-0.000137545	0.000775176	0.001168837
		0.000793869	0.001157603	-0.000273232	-0.000144954	0.003075239	0.000195113	0.996317956	-0.022956942
		-0.000273278	-0.000145014	0.000786185	0.001160397	0.996317898	-0.022956993	0.003093570	0.000181307
40.000000000	0.003452374	0.000270487	0.995810660	-0.026239095	0.000698839	0.001440193	-0.000309330	-0.000176377
		0.995810656	-0.026239037	0.003473863	0.000252127	-0.000309270	-0.000176325	0.000687117	0.001441314
		0.000713474	0.001430700	-0.000296323	-0.000184725	0.003456085	0.000250704	0.995806046	-0.026224445
		-0.000296369	-0.000184802	0.000703208	0.001433205	0.995805977	-0.026224503	0.003477317	0.000232993
45.000000000	0.003831620	0.000337908	0.995288577	-0.029505319	0.000550971	0.001708888	-0.000332325	-0.000219152
		0.995288574	-0.029505254	0.003856195	0.000315007	-0.000332264	-0.000219087	0.000536290	0.001708733
		0.000571201	0.001700428	-0.000315039	-0.000228314	0.003836146	0.000313204	0.995283424	-0.029488828
		-0.000315081	-0.000228407	0.000558030	0.001702067	0.995283346	-0.029488892	0.003860388	0.000291108
50.000000000	0.004209841	0.000412765	0.994755786	-0.032768389	0.000340662	0.001960864	-0.000350934	-0.000265546
		0.994755784	-0.032768317	0.004237642	0.000384830	-0.000350872	-0.000265469	0.000322876	0.001958676
		0.000366918	0.001954732	-0.000328966	-0.000275291	0.004215328	0.000382602	0.994750106	-0.032750055
		-0.000329002	-0.000275403	0.000350625	0.001954794	0.994750018	-0.032750126	0.004242703	0.000355645
55.000000000	0.004399969	0.000257487	0.994434619	-0.035746833	0.000374149	0.002127216	-0.000360075	-0.000284370
		0.994434594	-0.035746757	0.004434304	0.000226766	-0.000359996	-0.000284287	0.000353946	0.002125657
		0.000402062	0.002122556	-0.000336414	-0.000292499	0.004406673	0.000224626	0.994428760	-0.035726426
		-0.000336469	-0.000292614	0.000382962	0.002123188	0.994428694	-0.035726502	0.004440518	0.000194997
60.000000000	0.004584124	0.000087897	0.994104536	-0.038723644	0.000408333	0.002293437	-0.000368580	-0.000303680
		0.994104488	-0.038723563	0.004624806	0.000053766	-0.000368486	-0.000303592	0.000385558	0.002292542
		0.000437762	0.002290269	-0.000343324	-0.000310083	0.004591838	0.000052089	0.994098509	-0.038701164
		-0.000343400	-0.000310201	0.000415626	0.002291521	0.994098467	-0.038701246	0.004631971	0.000019178
65.000000000	0.004761473	-0.000095766	0.993765544	-0.041698796	0.000443214	0.002459523	-0.000376434	-0.000323460
		0.993765473	-0.041698710	0.004808273	-0.000133918	-0.000376324	-0.000323366	0.000417713	0.002459329
		0.000474019	0.002457869	-0.000349685	-0.000328028	0.004769969	-0.000134755	0.993759363	-0.041674242
		-0.000349782	-0.000328150	0.000448619	0.002459792	0.993759343	-0.041674329	0.004816170	-0.000171549
70.000000000	0.004931196	-0.000293217	0.993417651	-0.044672261	0.000478792	0.002625472	-0.000383622	-0.000343689
		0.993417556	-0.044672170	0.004983844	-0.000335989	-0.000383494	-0.000343589	0.000450411	0.002626018
		0.000510833	0.002625354	-0.000355487	-0.000346320	0.004940224	-0.000335609	0.993411326	-0.044645634
		-0.000355606	-0.000346445	0.000481939	0.002628001	0.993411330	-0.044645726	0.004992233	-0.000376873
75.000000000	0.005092482	-0.000504130	0.993060862	-0.047644013	0.000515066	0.002791283	-0.000390127	-0.000364349
		0.993060745	-0.047643917	0.005150670	-0.000552106	-0.000389983	-0.000364243	0.000483650	0.002792606
		0.000548203	0.002792724	-0.000360718	-0.000364944	0.005101775	-0.000550131	0.993054407	-0.047615312
		-0.000360860	-0.000365072	0.000515587	0.002796147	0.993054434	-0.047615410	0.005159291	-0.000596438
80.000000000	0.005244539	-0.000728136	0.992695186	-0.050614025	0.000552036	0.002956953	-0.000395936	-0.000385419
		0.992695045	-0.050613924	0.005307917	-0.000781880	-0.000395774	-0.000385308	0.000517432	0.002959093
		0.000586129	0.002959976	-0.000365369	-0.000383884	0.005253806	-0.000777936	0.992688613	-0.050583251
		-0.000365533	-0.000384016	0.000549562	0.002964230	0.992688663	-0.050583355	0.005316492	-0.000829839
85.000000000	0.005386588	-0.000964826	0.992320629	-0.053582272	0.000589701	0.003122479	-0.000401034	-0.000406881
		0.992320465	-0.053582166	0.005454769	-0.001024882	-0.000400854	-0.000406763	0.000551755	0.003125478
		0.000624611	0.003127110	-0.000369429	-0.000403126	0.005395522	-0.001018595	0.992313951	-0.053549423
		-0.000369617	-0.000403261	0.000583865	0.003132250	0.992314023	-0.053549533	0.005463001	-0.001076629
90.000000000	0.005517868	-0.001213747	0.991937199	-0.056548725	0.000628061	0.003287860	-0.000405408	-0.000428713
		0.991937013	-0.056548614	0.005590427	-0.001280638	-0.000405210	-0.000428588	0.000586619	0.003291758
		0.000663647	0.003294124	-0.000372888	-0.000422653	0.005526144	-0.001271638	0.991930428	-0.056513803
		-0.000373101	-0.000422792	0.000618495	0.003300205	0.991930523	-0.056513919	0.005598006	-0.001336316
95.000000000	0.005637640	-0.001474410	0.991544903	-0.059513360	0.000667116	0.003453093	-0.000409044	-0.000450895
		0.991544694	-0.059513243	0.005714118	-0.001548632	-0.000408828	-0.000450763	0.000622024	0.003457933
		0.000703239	0.003461017	-0.000375738	-0.000442451	0.005644916	-0.001536553	0.991538051	-0.059476364
		-0.000375976	-0.000442594	0.000653453	0.003468096	0.991538169	-0.059476486	0.005720714	-0.001608363
100.000000000	0.005745187	-0.001746284	0.991143749	-0.062476149	0.000706864	0.003618177	-0.000411930	-0.000473404
		0.991143517	-0.062476026	0.005825088	-0.001828307	-0.000411696	-0.000473265	0.000657970	0.003624002
		0.000743386	0.003627788	-0.000377969	-0.000462502	0.005751107	-0.001812788	0.991136828	-0.062437079
		-0.000378233	-0.000462650	0.000688738	0.003635922	0.991136969	-0.062437207	0.005830360	-0.001892192
105.000000000	0.005872868	-0.001970576	0.990778629	-0.065382740	0.000745314	0.003785463	-0.000421409	-0.000484530
		0.990778613	-0.065382620	0.005958275	-0.002057030	-0.000421109	-0.000484344	0.000691005	0.003791168
		0.000778464	0.003799516	-0.000388525	-0.000474964	0.005879065	-0.002040445	0.990771600	-0.065341600
		-0.000388792	-0.000475183	0.000717592	0.003799230	0.990771354	-0.065341711	0.005963860	-0.002124194
110.000000000	0.005992265	-0.002203568	0.990404987	-0.068287723	0.000784257	0.003952643	-0.000430882	-0.000495660
		0.990405187	-0.068287608	0.006083033	-0.002294701	-0.000430517	-0.000495429	0.000724270	0.003958291
		0.000813533	0.003971247	-0.000399092	-0.000487416	0.005998541	-0.002276891	0.990397861	-0.068244512
		-0.000399360	-0.000487708	0.000746273	0.003962570	0.990397230	-0.068244604	0.006088742	-0.002365232
115.000000000	0.006102988	-0.002444964	0.990022830	-0.071191073	0.000823691	0.004119716	-0.000440349	-0.000506795
		0.990023245	-0.071190963	0.006198965	-0.002541023	-0.000439918	-0.000506518	0.000757764	0.004125370
		0.000848591	0.004142980	-0.000409671	-0.000499858	0.006109139	-0.002521823	0.990015619	-0.071145790
		-0.000409938	-0.000500224	0.000774783	0.004125941	0.990014602	-0.071145860	0.006204600	-0.002614998
120.000000000	0.006204654	-0.002694456	0.989632163	-0.074092764	0.000863618	0.004286683	-0.000449812	-0.000517934
		0.989632793	-0.074092661	0.006305682	-0.002795682	-0.000449314	-0.000517612	0.000791488	0.004292405
		0.000883641	0.004314714	-0.000420261	-0.000512290	0.006210472	-0.002774922	0.989624880	-0.074045410
		-0.000420526	-0.000512733	0.000803119	0.004289343	0.989623477	-0.074045456	0.006311043	-0.002873170
125.000000000	0.006296891	-0.002951718	0.989232993	-0.076992772	0.000904036	0.004453540	-0.000459269	-0.000529078
		0.989233839	-0.076992677	0.006402807	-0.003058350	-0.000458704	-0.000528712	0.000825441	0.004459396
		0.000918680	0.004486451	-0.000430864	-0.000524712	0.006302162	-0.003035853	0.989225650	-0.076943347
		-0.000431124	-0.000525233	0.000831283	0.004452777	0.989223861	-0.076943366	0.006407688	-0.003139412
130.000000000	0.006379341	-0.003216410	0.988825326	-0.079891072	0.000944946	0.004620288	-0.000468720	-0.000540226
		0.988826388	-0.079890986	0.006489974	-0.003328684	-0.000468088	-0.000539816	0.000859624	0.004626342
		0.000953710	0.004658189	-0.000441478	-0.000537125	0.006383848	-0.003304267	0.988817935	-0.079839575
		-0.000441732	-0.000537725	0.000859275	0.004616241	0.988815761	-0.079839566	0.006494166	-0.003413372
135.000000000	0.006451655	-0.003488179	0.988409170	-0.082787638	0.000986347	0.004786924	-0.000478167	-0.000551379
		0.988410448	-0.082787563	0.006566829	-0.003606327	-0.000477466	-0.000550925	0.000894035	0.004793243
		0.000988730	0.004829930	-0.000452104	-0.000549528	0.006455175	-0.003579801	0.988401743	-0.082734070
		-0.000452350	-0.000550208	0.000887093	0.004779736	0.988399183	-0.082734030	0.006570120	-0.003694682
140.000000000	0.006513496	-0.003766658	0.987984531	-0.085682447	0.001028239	0.004953449	-0.000487608	-0.000562537
		0.987986024	-0.085682384	0.006633031	-0.003890907	-0.000486838	-0.000562040	0.000928676	0.004960099
		0.001023740	0.005001672	-0.000462742	-0.000561920	0.006515805	-0.003862078	0.987977079	-0.085626807
		-0.000462978	-0.000562684	0.000914739	0.004943262	0.987974134	-0.085626734	0.006635203	-0.003982962
145.000000000	0.006564543	-0.004051466	0.987551415	-0.088575473	0.001070622	0.005119861	-0.000497044	-0.000573699
		0.987553124	-0.088575423	0.006688251	-0.004182041	-0.000496204	-0.000573159	0.000963546	0.005126910
		0.001058741	0.005173417	-0.000473391	-0.000574303	0.006565412	-0.004150705	0.987543952	-0.088517762
		-0.000473616	-0.000575151	0.000942213	0.005106818	0.987540622	-0.088517653	0.006689084	-0.004277819
150.000000000	0.006604486	-0.004342208	0.987109830	-0.091466691	0.001113495	0.005286159	-0.000506475	-0.000584865
		0.987111754	-0.091466655	0.006732172	-0.004479331	-0.000505565	-0.000584283	0.000998645	0.005293675
		0.001093732	0.005345163	-0.000484052	-0.000586676	0.006603684	-0.004445280	0.987102366	-0.091406909
		-0.000484263	-0.000587610	0.000969514	0.005270405	0.987098652	-0.091406763	0.006731446	-0.004578844
155.000000000	0.006694045	-0.004594353	0.986687766	-0.094334993	0.001159010	0.005447360	-0.000512828	-0.000594874
		0.986689662	-0.094335050	0.006831325	-0.004739326	-0.000511855	-0.000594299	0.001036122	0.005456085
		0.001137118	0.005508311	-0.000491846	-0.000596751	0.006693203	-0.004700899	0.986680338	-0.094272973
		-0.000492093	-0.000597709	0.001004836	0.005434379	0.986676684	-0.094272654	0.006830502	-0.004842112
160.000000000	0.006776117	-0.004851730	0.986257369	-0.097201609	0.001205184	0.005608397	-0.000519139	-0.000604914
		0.986259237	-0.097201760	0.006922846	-0.005004816	-0.000518101	-0.000604347	0.001073993	0.005618413
		0.001181076	0.005671324	-0.000499629	-0.000606835	0.006775114	-0.004961762	0.986249990	-0.097137353
		-0.000499913	-0.000607816	0.001040460	0.005598294	0.986246397	-0.097136860	0.006921820	-0.005110876
165.000000000	0.006850530	-0.005114140	0.985818645	-0.100066517	0.001252017	0.005769268	-0.000525409	-0.000614985
		0.985820485	-0.100066760	0.007006559	-0.005275600	-0.000524304	-0.000614426	0.001112259	0.005780656
		0.001225605	0.005834200	-0.000507402	-0.000616926	0.006849246	-0.005227666	0.985811328	-0.100000024
		-0.000507723	-0.000617930	0.001076385	0.005762147	0.985807798	-0.099999358	0.007005227	-0.005384934
170.000000000	0.006917117	-0.005381379	0.985371601	-0.102929691	0.001299508	0.005929971	-0.000531635	-0.000625087
		0.985373412	-0.102930027	0.007082295	-0.005551475	-0.000530463	-0.000624537	0.001150919	0.005942815
		0.001270706	0.005996937	-0.000515164	-0.000627026	0.006915433	-0.005498404	0.985364358	-0.102860962
		-0.000515524	-0.000628053	0.001112612	0.005925939	0.985360891	-0.102860124	0.007080553	-0.005664079
175.000000000	0.006975717	-0.005653239	0.984916243	-0.105791108	0.001347657	0.006090505	-0.000537820	-0.000635220
		0.984918024	-0.105791536	0.007149889	-0.005832231	-0.000536579	-0.000634679	0.001189973	0.006104888
		0.001316377	0.006159534	-0.000522916	-0.000637133	0.006973514	-0.005773764	0.984909087	-0.105720144
		-0.000523314	-0.000638183	0.001149141	0.006089669	0.984905685	-0.105719133	0.007147633	-0.005948099
180.000000000	0.007026173	-0.005929505	0.984452577	-0.108650742	0.001396463	0.006250867	-0.000543961	-0.000645383
		0.984454328	-0.108651263	0.007209181	-0.006117655	-0.000542651	-0.000644852	0.001229420	0.006266876
		0.001362618	0.006321990	-0.000530658	-0.000647249	0.007023331	-0.006053530	0.984445521	-0.108577543
		-0.000531095	-0.000648322	0.001185972	0.006253338	0.984442184	-0.108576361	0.007206307	-0.006236779
185.000000000	0.007068334	-0.006209959	0.983980609	-0.111508571	0.001445926	0.006411055	-0.000550060	-0.000655577
		0.983982330	-0.111509184	0.007260015	-0.006407529	-0.000548679	-0.000655057	0.001269262	0.006428776
		0.001409430	0.006484303	-0.000538390	-0.000657373	0.007064735	-0.006337481	0.983973667	-0.111433138
		-0.000538866	-0.000658468	0.001223104	0.006416943	0.983970397	-0.111431784	0.007256422	-0.006529899
190.000000000	0.007102054	-0.006494381	0.983500348	-0.114364570	0.001496045	0.006571067	-0.000556117	-0.000665801
		0.983502037	-0.114365274	0.007302242	-0.006701630	-0.000554663	-0.000665293	0.001309497	0.006590589
		0.001456811	0.006646471	-0.000546111	-0.000667506	0.007097580	-0.006625392	0.983493531	-0.114286904
		-0.000546627	-0.000668621	0.001260537	0.006580485	0.983490329	-0.114285379	0.007297829	-0.006827234
195.000000000	0.007127194	-0.006782544	0.983011798	-0.117218715	0.001546820	0.006730902	-0.000562130	-0.000676055
		0.983013456	-0.117219511	0.007335719	-0.006999733	-0.000560603	-0.000675559	0.001350125	0.006752314
		0.001504761	0.006808494	-0.000553821	-0.000677646	0.007121726	-0.006917035	0.983005121	-0.117138816
		-0.000554378	-0.000678783	0.001298271	0.006743964	0.983001986	-0.117137120	0.007330384	-0.007128555
200.000000000	0.007143620	-0.007074218	0.982514967	-0.120070982	0.001598250	0.006890556	-0.000568101	-0.000686340
		0.982516593	-0.120071869	0.007360307	-0.007301607	-0.000566499	-0.000685856	0.001391147	0.006913950
		0.001553280	0.006970369	-0.000561522	-0.000687795	0.007137040	-0.007212176	0.982508442	-0.119988851
		-0.000562119	-0.000688952	0.001336307	0.006907379	0.982505377	-0.119986985	0.007353950	-0.007433631
205.000000000	0.007199252	-0.007346779	0.982022980	-0.122905988	0.001651411	0.007047425	-0.000573029	-0.000696702
		0.982024510	-0.122906873	0.007425841	-0.007584979	-0.000571382	-0.000696244	0.001434154	0.007073314
		0.001606724	0.007125749	-0.000567338	-0.000697599	0.007192322	-0.007488316	0.982016691	-0.122821561
		-0.000567990	-0.000698732	0.001379854	0.007068921	0.982013806	-0.122819702	0.007419183	-0.007720305
210.000000000	0.007248270	-0.007622571	0.981522814	-0.125739150	0.001705287	0.007204087	-0.000577898	-0.000707103
		0.981524249	-0.125740032	0.007484632	-0.007871785	-0.000576205	-0.000706670	0.001477637	0.007232565
		0.001660959	0.007280903	-0.000573120	-0.000707427	0.007240916	-0.007767674	0.981516774	-0.125652428
		-0.000573826	-0.000708535	0.001423947	0.007230337	0.981514069	-0.125650578	0.007477612	-0.008010395
215.000000000	0.007290591	-0.007901455	0.981014476	-0.128570444	0.001759880	0.007360542	-0.000582708	-0.000717540
		0.981015816	-0.128571323	0.007536594	-0.008161887	-0.000580968	-0.000717133	0.001521597	0.007391702
		0.001715984	0.007435828	-0.000578866	-0.000717280	0.007282737	-0.008050111	0.981008698	-0.128481429
		-0.000579630	-0.000718361	0.001468585	0.007391623	0.981006173	-0.128479587	0.007529153	-0.008303764
220.000000000	0.007326134	-0.008183293	0.980497973	-0.131399845	0.001815187	0.007516785	-0.000587458	-0.000728013
		0.980499217	-0.131400721	0.007581642	-0.008455148	-0.000585670	-0.000727633	0.001566034	0.007550724
		0.001771798	0.007590522	-0.000584578	-0.000727157	0.007317707	-0.008335488	0.980492470	-0.131308538
		-0.000585399	-0.000728211	0.001513767	0.007552780	0.980490125	-0.131306707	0.007573724	-0.008600272
225.000000000	0.007354819	-0.008467943	0.979973311	-0.134227332	0.001871208	0.007672816	-0.000592149	-0.000738524
		0.979974459	-0.134228203	0.007619698	-0.008751426	-0.000590311	-0.000738170	0.001610946	0.007709630
		0.001828401	0.007744981	-0.000590254	-0.000737058	0.007345746	-0.008623661	0.979968096	-0.134133735
		-0.000591134	-0.000738084	0.001559493	0.007713806	0.979965931	-0.134131914	0.007611245	-0.008899778
