! Created Wed Feb 25 18:01:53 2015
# hz S ma R 50
! 4 Port Network Data from SP1.SP block
! freq  magS11  angS11  magS12  angS12  magS13  angS13  magS14  angS14  
!       magS21  angS21  magS22  angS22  magS23  angS23  magS24  angS24  
!       magS31  angS31  magS32  angS32  magS33  angS33  magS34  angS34  
!       magS41  angS41  magS42  angS42  magS43  angS43  magS44  angS44  
!     
          10000000      0.0391616159         16.2834453       0.0254979447          73.912779        0.954085314        -11.2290594      0.00304834982        -138.669629
                     0.0255001715         73.8610189       0.0405079232         16.6784191      0.00304473085        -137.840181        0.955666155        -11.2401715
                      0.954084237        -11.2290176      0.00306496703        -138.188751       0.0392305825         15.9496154       0.0251714543         73.4056819
                    0.00302770812        -138.316526        0.955667205        -11.2402134       0.0251876359         73.3580521       0.0404424065         16.0331093

          20000000      0.0505782109         20.9050108       0.0488714405         63.6442978        0.945449022        -22.1153309      0.00558813447        -147.229479
                      0.048874586         63.6207392       0.0521078491         22.1245268      0.00560423813        -146.488181        0.947347942         -22.141116
                       0.94544799        -22.1152062      0.00561918385        -146.591372        0.051798118         21.4431123         0.04860035         63.5063378
                    0.00557283194        -147.124246        0.947349506        -22.1411634       0.0486166997         63.5012937         0.05337361         21.6415585

          30000000      0.0639350479         17.9879027       0.0701325572         53.8316146        0.934322545        -32.9041551      0.00754691831        -161.410012
                     0.0701406651         53.8157729       0.0660441304         19.5752052      0.00759666886        -160.493767        0.936128026        -32.9426373
                       0.93432027        -32.9040626       0.0076047141        -160.514508        0.066851996         17.3971092       0.0699409973         53.7772675
                    0.00753857641        -161.387683        0.936130576        -32.9426466       0.0699446539         53.7856379       0.0690888455         17.3544961

          40000000       0.075133415         13.1822217       0.0886776504         44.1106109        0.923915558        -43.6176578      0.00895676665        -176.547837
                     0.0886975774         44.0988549       0.0778177698         15.0371163       0.0090584834        -175.371142        0.925560123        -43.6667973
                      0.923912243        -43.6176984      0.00905733843        -175.366514       0.0800544612         10.8336887       0.0884830185         44.1569159
                    0.00895769748        -176.550273        0.925564084        -43.6667174       0.0884620219         44.1677652       0.0828920007          10.478031

          50000000      0.0835166288         7.44486951         0.10386203         34.4507232        0.914254555        -54.2395789      0.00976380765         168.501774
                      0.103900616         34.4443989       0.0866683745         9.57458251      0.00993723374         169.998941        0.915762972        -54.2976756
                      0.914248651        -54.2397199       0.0099259373         169.996614       0.0904706361         3.06204241        0.103549298         34.6259235
                    0.00977487875         168.507935        0.915769374        -54.2974873        0.103496451         34.6310136       0.0937526565         2.39353505

          60000000      0.0875585763        0.968784438        0.115342816         24.6325601         0.90636079        -64.6194558      0.00982368077         155.239148
                      0.115392542         24.6255032       0.0909621471         3.47145124       0.0100726616         157.104907        0.907772835        -64.6854203
                      0.906354555        -64.6195874       0.0100729417         157.110482       0.0960427009        -5.43698124        0.115048325         24.9360513
                    0.00982320216         155.235319        0.907778947        -64.6852894        0.114995843         24.9413845        0.099589434        -6.49188326

          70000000      0.0888815568        -5.70028643        0.123134118         14.9525519         0.89925585        -74.9041216       0.0093738848          143.84515
                      0.123189574         14.9455528       0.0924039247        -2.76756454      0.00972897713         146.039738        0.900601107        -74.9769892
                       0.89924911        -74.9041798      0.00974072025         146.059522       0.0984898254        -14.1940575        0.122869607          15.407843
                    0.00936206487         143.823969        0.900608658        -74.9769545        0.122819021         15.4138393        0.102149998        -15.6768295

          80000000      0.0881175115        -12.1821791        0.127117267         5.36717201        0.892909586        -85.1477323      0.00858190751         135.040043
                      0.127172672         5.36097134       0.0916560989        -8.75392755        0.009077205         137.384121         0.89421311          -85.22763
                      0.892903039        -85.1477093      0.00910030859         137.417724       0.0984988834        -23.0476504        0.126895552         6.01702945
                    0.00855883753         135.000563        0.894220721        -85.2276054          0.1268481         6.02415613        0.102122785         -25.016213

          90000000      0.0854947921        -18.3708946        0.127239669        -4.11990318        0.887288098        -95.3671783      0.00764625608         130.270511
                      0.127289165        -4.12434521       0.0889681657        -14.3507785      0.00830982435         132.215923        0.888565537        -95.4550779
                      0.887282423        -95.3670844      0.00834435194         132.249489       0.0962219399        -31.9582159        0.127076325        -3.21479616
                    0.00761174861         130.228375         0.88857211         -95.455177        0.127033387         -3.2057825       0.0996571039        -34.4899865

         100000000      0.0812282387        -24.1551635        0.123537573        -13.4923237        0.882319515        -105.577284      0.00691025653         131.182279
                      0.123575698        -13.4937798       0.0845891776        -19.4044215      0.00772863406         131.516172        0.883575198        -105.674714
                      0.882314262        -105.577152      0.00777421089         131.511127       0.0918023778        -40.9077478        0.123457963        -12.2436357
                    0.00686465452         131.190425        0.883580371        -105.674849        0.123419531        -12.2317225       0.0948922249        -44.1075006

         110000000      0.0754476422        -29.3389249        0.116139301        -22.6859002        0.878076715        -115.775064       0.0068185674         137.169144
                      0.116163308        -22.6787762       0.0787548996        -23.6465996      0.00769720612         134.547292         0.87930218        -115.883575
                      0.878073452        -115.774943      0.00773647037          134.45086       0.0853083164        -49.8065345        0.116246835        -20.9715961
                    0.00678038994          137.29839        0.879305111        -115.883705        0.116217097        -20.9620368       0.0878741337        -53.8663924

         120000000      0.0684148355        -33.6461033        0.105274806        -31.6469713        0.874217206         -125.98653        0.007784313         142.943743
                      0.105281935        -31.6328452       0.0717902359        -26.7461609      0.00853789004         137.789211        0.875395584        -126.107299
                      0.874216367        -125.986361      0.00856814465         137.637288       0.0768827446        -58.6860671        0.105636419        -29.2576374
                    0.00775703475          143.13273        0.875395843        -126.107482        0.105620771        -29.2525771       0.0787800302        -63.8465657

         130000000      0.0604894445        -36.6138218       0.0912802912        -40.2220674        0.870553083        -136.218053      0.00970328935         143.337717
                     0.0912715383        -40.2027479       0.0642001678        -28.1615222       0.0102230757         137.416132        0.871661777        -136.351658
                      0.870553775        -136.217937       0.0102442315         137.259102       0.0667182679        -67.4929088       0.0920132501        -36.8092259
                    0.00968614799           143.5159         0.87166105        -136.351754       0.0920157334        -36.8121551        0.067813726        -74.1322276

         140000000      0.0521766283        -37.5336592       0.0746140658        -48.0853122        0.866848594        -146.470078       0.0122159656         138.264657
                     0.0745890019        -48.0645286       0.0567328246        -27.1408326       0.0124940635         132.659149        0.867901539        -146.617916
                      0.866850448        -146.470117       0.0125076589         132.518886       0.0550142105        -76.1454993       0.0759320367        -43.0251477
                     0.0122065159         138.413517        0.867899297        -146.617944       0.0759535158        -43.0425056       0.0552289642        -84.8959483

         150000000      0.0441328058        -35.0637386       0.0558678721        -54.4036464        0.863068319        -156.733041       0.0150215136         129.670306
                     0.0558276855        -54.3876217       0.0504818453        -22.8917237        0.015079381         124.645781        0.863932309        -156.903154
                      0.863071719        -156.733083       0.0150867828         124.523467       0.0419821263        -84.1609339       0.0582715577        -46.4840084
                     0.0150181136         129.795018        0.863928381        -156.903176       0.0583078316        -46.5295347       0.0413466564        -96.5586797

         160000000      0.0380476851        -27.3569937       0.0360223292        -56.4381635        0.859129889        -167.013505       0.0179508986         118.906524
                     0.0359745585        -56.4300505       0.0469506587          -15.03164       0.0177999288          114.50071        0.859700781        -167.194957
                      0.859131919        -167.013538       0.0178043809         114.406229       0.0280113151        -90.2134505       0.0406761667        -43.4403288
                     0.0179497995         119.001158        0.859697841        -167.194884       0.0406981354        -43.5258226       0.0263099908         -110.34182

         170000000      0.0356703993        -15.3877607       0.0176007294        -39.8003856        0.854659303         -177.29676        0.020799765         106.725826
                     0.0175438375        -39.7574154       0.0474008708        -5.76183127       0.0204665385         102.897641        0.854957094        -177.486455
                      0.854660949        -177.296805       0.0204683285         102.824052       0.0137685258        -88.8315931       0.0273738077         -23.593311
                     0.0208009049         106.798948        0.854953169        -177.486403       0.0273572762        -23.7315474       0.0111107083        -135.417341

         180000000      0.0376844205        -3.29460583       0.0162970501         30.9740876        0.849775351          172.43587       0.0233672393         93.8442407
                     0.0162830653         31.2251789       0.0515972981         1.75849746       0.0228973712         90.5428825        0.849819322         172.242313
                      0.849776768         172.435758       0.0228966394         90.4845216      0.00522229569        -7.99743088       0.0279973078         13.0416051
                     0.0233704521           93.90199        0.849816462         172.242361       0.0279352712         12.9796835      0.00757879595         99.6956935

         190000000      0.0436060156         4.97635585       0.0340645048         51.6660958        0.844587325         162.188766        0.025689777         80.7516647
                     0.0340773106          51.814528       0.0585744019          6.1207902       0.0251022129          77.861971        0.844349217         161.984352
                      0.844589065         162.188724       0.0250986258         77.8154749       0.0172314073         35.8313205       0.0416786845         31.1850772
                     0.0256956354         80.7975662        0.844346143         161.984397       0.0416121525         31.1926823       0.0220418646         63.6711392

         200000000      0.0516183753         8.01593282       0.0536442059          50.547039        0.839145553         151.959882       0.0276802714         67.4676465
                      0.053659293         50.6594413       0.0669799715         7.20320754       0.0269960785         64.9789701        0.838500335         151.756891
                      0.839148783         151.959857       0.0269894106         64.9418985       0.0310203248         33.7452202       0.0590323245         33.6913262
                     0.0276889716         67.5042594        0.838496733          151.75694       0.0589746942         33.7109435       0.0368065371         48.9949057

         210000000      0.0602536194         7.50012921       0.0721056924         44.8312657        0.833476434         141.768226        0.029254253         54.2422462
                     0.0721173286         44.9178261       0.0758038486         5.86872482        0.028507916          52.122655         0.83250745          141.57451
                      0.833480048         141.768204       0.0285008194         52.0948677        0.044141151         27.1797228       0.0761656612         30.2274576
                     0.0292631848         54.2699502        0.832503529         141.574568       0.0761243352          30.242612       0.0507822181         37.3110109

         220000000      0.0684914186         4.78404344       0.0886120794         37.5809064        0.827733562         131.615924       0.0304035254         41.2324188
                     0.0886179878         37.6516662       0.0840902709         2.92483462       0.0296325291         39.4553049        0.826507284          131.43548
                      0.827737574         131.615888       0.0296248975         39.4358476       0.0560187217         19.5686079       0.0916932259         24.2809952
                     0.0304127453         41.2520175        0.826503007         131.435565       0.0916663189         24.2897751       0.0634020909         26.8015911

         230000000      0.0758213807        0.733131336        0.102652073         29.6926322        0.822089586         121.503112       0.0311431482         28.5714567
                       0.10265148         29.7520825       0.0913639822        -1.03559519       0.0303872232         27.1129955        0.820672451         121.339101
                      0.822093902         121.503044       0.0303790387         27.1012989       0.0663880971         11.6362399         0.10490517         17.1436224
                     0.0311527555         28.5835989        0.820667145         121.339186        0.104890617          17.146164       0.0743792504         16.9045756

         240000000      0.0819374502        -4.13329226        0.113867611          21.523334        0.816693258         111.426559       0.0315105631         16.3745982
                       0.11386052         21.5737487       0.0973408257        -5.62672054       0.0308116651         15.2085385        0.815154379         111.280953
                      0.816697062         111.426393        0.030802795         15.2040125       0.0750557806         3.64803721        0.115365694         9.38045132
                     0.0315206925          16.379797        0.815150437         111.281095        0.115361079         9.37722389       0.0835048962         7.41013009

         250000000       0.086656265        -9.50542891        0.122010296         13.2455522         0.81166371         101.380013       0.0315646612         4.74921813
                      0.121997289          13.288361        0.101855677        -10.6010361       0.0309652285          3.8386315        0.810076928         101.253832
                      0.811667191         101.379881       0.0309556576         3.84094129       0.0818860087        -4.26999227        0.122796781         1.27348985
                     0.0315753527         4.74749068        0.810072673         101.253986        0.122799627         1.26501758       0.0906275807        -1.77875639

         260000000      0.0898987242        -15.2004139        0.126927712         4.96368476        0.807123032         91.3593622       0.0313762474        -6.17343032
                      0.126910575         4.99808402        0.104856227        -15.7998582       0.0309139255        -6.88057423        0.805561265         91.2524423
                      0.807125925         91.3591913       0.0309058022        -6.87478194       0.0868525528        -12.0287062        0.127036714          -7.016698
                     0.0313853642        -6.17860617        0.805557709          91.252634        0.127044112        -7.02912713       0.0956939111         -10.699265

         270000000      0.0915212181        -21.0759453        0.128551362         -3.2576982        0.803078599          81.350447       0.0310618719        -16.3314869
                      0.128531864        -3.23058321        0.106210262         -21.094823       0.0307699128        -16.9148894        0.801610095         81.2612865
                      0.803080744         81.3502457       0.0307631468        -16.9056449       0.0898129977        -19.5557775        0.128014748        -15.3913556
                     0.0310694914        -16.3401226        0.801607396         81.2615071        0.128024325        -15.4070232       0.0985447877        -19.3639111

         280000000      0.0914689795        -27.0456282        0.126887701        -11.3550321        0.799530409         71.3427415       0.0307490226        -25.6789646
                      0.126867699        -11.3341727        0.105883785        -26.3943578       0.0306477104        -26.2477782        0.798216079         71.2688137
                      0.799531706         71.3425151       0.0306422694        -26.2352638       0.0907497822        -26.7802097        0.125739747        -23.7732707
                      0.030754969        -25.6909591        0.798214334         71.2690581        0.125750318        -23.7914706       0.0991284111        -27.7689482

         290000000       0.089698672        -33.0348369        0.122020988        -19.2519422        0.796435463         61.3261127       0.0305809488         -34.239698
                      0.122002282        -19.2364505        0.103852923        -31.6088872       0.0306708018        -34.9287907        0.795326405         61.2638412
                      0.796436891         61.3258981       0.0306666638        -34.9131824       0.0896861167        -33.6034383        0.120299909         -32.084811
