! Created Fri Jan 30 21:06:49 2015
# hz S ma R 50
! 4 Port Network Data from SP1.SP block
! freq  magS11  angS11  magS12  angS12  magS13  angS13  magS14  angS14  
!       magS21  angS21  magS22  angS22  magS23  angS23  magS24  angS24  
!       magS31  angS31  magS32  angS32  magS33  angS33  magS34  angS34  
!       magS41  angS41  magS42  angS42  magS43  angS43  magS44  angS44  
!     
          50000000      0.0279868412        -72.5149614      0.00281170913         57.1872507        0.966951985         -31.577153      0.00193772414        -136.388441
                    0.00211499676         55.1576263       0.0215168854        -36.3257384      0.00214307997        -137.941697         0.96676819        -31.5009442
                      0.967662628        -31.8554195      0.00131900802        -136.232199       0.0288895641        -74.7699671      0.00144388765         32.1187713
                    0.00174552356        -141.291497        0.967527166        -31.7793638      0.00173536808          35.184192       0.0213133251        -39.1287943

         100000000      0.0430997484        -124.869678      0.00258112519         39.0822894        0.955585577        -62.7387237     0.000717842943         126.725625
                    0.00224318317         41.0589532       0.0208933386        -85.4911161     0.000912581336         129.960414        0.956834707        -62.6509908
                      0.955356667        -62.8695973      0.00116304226          110.91841       0.0487626953        -124.804598      0.00139580678        -26.7169922
                    0.00120502017         108.105921        0.956707635        -62.7786519      0.00138510383        -28.3767168       0.0261163794        -91.9405993

         150000000      0.0513075128         -166.62745      0.00104227139         9.33944196        0.944454663        -93.7319379      0.00130284489         108.935772
                   0.000759648293         17.4800683        0.016793387        -130.648826      0.00134078653          114.33317        0.946664335        -93.6296904
                      0.943465063        -93.7504495      0.00141890084          112.32077       0.0591636652        -163.867578      0.00174371885        -135.387378
                    0.00141307939         114.729408        0.945673328        -93.6402059      0.00194806474        -138.923902       0.0250635564        -134.621601

         200000000      0.0482157314         154.376658      0.00267809884         122.490212         0.93447092        -124.389433     0.000810438421         74.8542958
                    0.00276074751         127.494018      0.00781752427         -179.13522     0.000707517215         71.1063089        0.936782678        -124.335834
                      0.934382471        -124.457853     0.000918223332         98.3524444       0.0546883218         158.657825      0.00519444978          166.26298
                   0.000915504288         102.468853        0.936690661        -124.409116      0.00521881058         164.322846       0.0152702385         -174.72348

         250000000      0.0345059403         112.768817      0.00712505281         101.128507        0.926932287        -155.010319     0.000986190284         41.5685814
                    0.00745543715         101.732969      0.00582946433        -6.97679779     0.000822045381         36.4597947        0.928427966        -155.029445
                      0.927519289        -155.077198      0.00110734407         -9.2920966       0.0381472914         117.282885      0.00885582562         127.338326
                    0.00111783936        -8.26810561        0.928932521        -155.091746       0.0088706268         127.906199      0.00224022221         34.9650063

         300000000      0.0168189747          49.121547       0.0115170602          73.254208        0.919832539         174.339772     0.000825589128        -6.59662517
                     0.0116839133         73.7002132        0.019153257        -52.9222841     0.000687083198       -0.127833611        0.920564032         174.314466
                      0.920255332         174.287814     0.000333665867        0.354182812       0.0168612005         51.9607824       0.0114297941          89.989815
                   0.000554001637        -10.5481864         0.92099907         174.255478       0.0114609328          90.414761       0.0193689101        -50.5505955

         350000000      0.0172684978        -72.4837376       0.0119559268         43.2323889        0.912751021          143.72111     0.000898175042         63.3446735
                      0.011926617         42.8328245       0.0290503539        -92.1242031     0.000900670851         71.5222563        0.913019431         143.759996
                      0.912700545         143.662065     0.000708120527         92.1719592       0.0205993066        -70.5823414       0.0108421751         58.4521071
                   0.000665629485         87.5535211        0.913004448         143.707778       0.0108543285         58.0983735        0.033669443        -85.8946373

         400000000      0.0327728328        -133.344987      0.00813136079         10.0616955        0.904754833         113.075088     0.000563937697         113.901038
                    0.00814730698         9.81542311       0.0309979438        -130.458922     0.000670522226         115.133272        0.905342942         113.187591
                      0.904821529          113.07629     0.000627719201         60.8287751        0.039783145         -122.79849      0.00612567746         34.4007531
                   0.000674204538          49.144282        0.905383246         113.187192      0.00607335792         34.2367755       0.0403003391        -116.446682

         450000000      0.0423058322        -177.265774       0.0012218907        -57.4477041        0.896145264          82.633627       0.0013115556        -19.7146625
                    0.00112112338        -60.3764514       0.0245404028        -172.957773      0.00127733125        -5.93730527        0.897585338         82.7640929
                      0.895635223         82.5802946     0.000952238441        -2.76464409       0.0508079528        -160.909341      0.00378613728         133.845333
                   0.000877341764        -9.96481413         0.89722613         82.7194615      0.00380208634         135.276596       0.0368731563        -145.984845

         500000000      0.0430917734          139.87346      0.00832862439         145.209159        0.888661773         52.2736345      0.00110973994        -85.5267742
                    0.00848182074         145.113407       0.0136504366         121.041852      0.00109774907        -73.7327562        0.890651454         52.3564781
                       0.88923888         52.1845618     0.000900760942        -37.1220189       0.0504517735          164.58351       0.0135215211         130.089131
                   0.000888531551        -56.2466339        0.891316655         52.2712026       0.0135095341         130.354953        0.023845912        -170.183513

         550000000      0.0376190192         91.3605274       0.0172486967          113.84687        0.881709521          21.862205      0.00105972682        -104.573637
                     0.0174249067         113.532018       0.0173894553         12.3297765      0.00096469697        -104.772689        0.883924789         21.8799585
                      0.882630537         21.8523551     0.000507442305        -170.735654       0.0382475115         131.385961       0.0221776188         103.715966
                   0.000545798191        -173.679214        0.884730953         21.8694706       0.0221701736         103.962796      0.00754266437        -141.539549

         600000000       0.029420707         30.8893492       0.0226997533         86.1470352        0.876151936        -8.59606091     0.000266714013         107.154576
                     0.0229163303         86.3754922       0.0344291667         -46.201102     0.000317106489        -146.577093        0.877147824        -8.55848513
                      0.876349048        -8.56005524     0.000275456271         171.480927       0.0187779304         101.360821       0.0270205686         75.2802519
                   0.000434463082         106.636972        0.877246238        -8.52365518       0.0268614651         75.6774743       0.0223704276        -90.8674618

         650000000      0.0281329356        -38.9425335       0.0234520369          61.246037          0.8700467        -38.9486226     0.000197860155         53.3817022
                     0.0236085668         61.4300825       0.0472439568        -86.3209593      0.00025534732        -101.050413        0.870250107        -38.9238571
                        0.8703922        -39.0191536     0.000436032722          11.049706      0.00425500036        -125.982476       0.0258713858         44.4448652
                   0.000658095865         38.4520353        0.870531716        -38.9920338        0.025859419         44.6552001       0.0408551229        -111.846327

         700000000      0.0318791952        -101.692717       0.0175348374         43.0773132        0.864023939        -69.3790438     0.000874245455        -118.323426
                     0.0175527067         43.1334828       0.0507568626        -123.496818      0.00105358688        -117.640559         0.86288455        -69.2771871
                      0.863848226        -69.3667641     0.000798463183        -129.157604        0.024905769        -146.745543        0.017946099          12.636292
                   0.000673578599         -126.02387        0.862660846        -69.2692977       0.0178025337         12.8177959       0.0512862951        -138.932563

         750000000      0.0342005499        -152.667984       0.0102157781         54.6657042         0.85646041        -99.7624989     0.000971396982        -169.129814
                     0.0102828391         54.3475446       0.0429377273        -158.934248     0.000819992944         170.882101        0.856329533        -99.6121728
                      0.855680523        -99.7537745     0.000929387827          167.67155       0.0378037041        -176.310785      0.00489815221        -43.2826414
                   0.000974192871         177.788542        0.855487466        -99.6052144      0.00489944425        -43.7079187       0.0497889526        -167.031555

         800000000      0.0317967258         160.429043        0.015631268          93.772106        0.849918064        -130.025462      0.00092922031         111.594916
                      0.015735628         93.8976511        0.026080137         165.335369      0.00103851726         115.144285        0.850471699        -129.828285
                      0.850460881        -130.001492     0.000810846082         139.893712        0.039582923         152.572725       0.0119957026         156.958418
                   0.000882460777         140.865236        0.850989251         -129.79908       0.0119916954          157.31417       0.0349136977         164.517056

         850000000      0.0252251699         106.727565       0.0267052409         85.7303973        0.843620525        -160.278433      0.00123190239         58.4721836
                     0.0267654282         85.8870672      0.00460015009         83.6766965      0.00114273378          49.985704        0.844579857        -160.114269
                      0.844166196        -160.340983      0.00114634758         12.1794894       0.0320266798         120.855169       0.0258285178         120.844134
                    0.00109514701         29.7419492         0.84513096        -160.180454       0.0258347555         120.962929       0.0112308455         137.945863

         900000000      0.0218157253         41.3636923        0.034070601         65.8730173         0.83786448         169.507586      0.00043011034        -47.9759608
                     0.0340159371          65.822455       0.0210114742        -56.6294946     0.000673134609        -40.5754003        0.839113474         169.523963
                      0.838304259         169.484113      0.00122333926        -48.2585066       0.0192351618         87.7356007       0.0339941816         90.7272425
                   0.000918035631        -55.8547075        0.839497423          169.50832       0.0339881045         90.6572315       0.0146218356        -77.0634619

         950000000      0.0228503361         -25.253543       0.0344411718         42.2792655        0.831478443         139.120182     0.000712813061        -98.2860625
                      0.034489628         42.4682639        0.039197008        -94.8004018    2.61524045e-005         -141.38302         0.83324843         139.212761
                      0.832116972         139.085449     0.000138065278         -174.49255      0.00499422206         50.2128658       0.0347559336         62.4860733
                   0.000729469953        -94.2788269        0.833595629         139.175305        0.034667174         62.6673663       0.0360440978        -104.706567

            1e+009      0.0246686304        -76.6231406       0.0282337684          19.119579        0.827222807           108.7654     0.000426076466         70.0092633
                      0.028357687         19.2640787        0.047048953        -128.545032     0.000785223776         80.6867136        0.825807128         108.943017
                      0.827302257         108.774901     0.000615024441         134.423499      0.00764650752        -142.786712        0.027402822         37.6969315
                   0.000433867735         161.579544        0.825829586         108.927651       0.0273572189         37.9295506       0.0487804644        -132.422566

         1.05e+009      0.0211706612        -117.148443       0.0154711463         1.51869497        0.821177815         78.4968111      0.00115608603         14.4874923
                     0.0154332734         1.60644223       0.0414286936        -161.555322      0.00107674681         11.0579797        0.818982127         78.6797363
                      0.820975841           78.50583     0.000779601698         23.5490335       0.0150488286        -174.799809       0.0144815572         28.0939463
                    0.00098326854         25.2715565        0.818911827         78.6878004       0.0144983259         28.6836654       0.0496861059        -157.945469

          1.1e+009       0.011159063        -148.413329      0.00541526963         70.0039719        0.814651759         48.2283278      0.00101978007        -39.6875372
                    0.00543553995          69.850178       0.0240005686         164.636166      0.00108938372        -50.5109256        0.813968969         48.4430078
                      0.814843239         48.2129552     0.000836163886        -50.9662597       0.0155238081          160.38977       0.0112626592          86.872748
                    0.00109191303        -32.9819219        0.814029727         48.4359017       0.0112810771         86.9110811       0.0387950245        -178.747152

         1.15e+009     0.00267909089         -19.621099       0.0183501705         93.1611369        0.809114354           17.92559     0.000692887009        -139.062662
                     0.0184468586         93.2386881      0.00282574081         54.7016195     0.000436469661        -141.326115        0.809292883         18.1905407
                      0.808960371         17.9481009     0.000293712811        -164.567969       0.0104682145         146.854138       0.0246999925          90.656269
                   0.000580900821        -155.923007        0.809279445         18.2104434       0.0247713346         90.5253346       0.0218043224        -179.943538

          1.2e+009      0.0180855118        -32.4875343       0.0273469785          72.508876        0.803867919        -12.2205866     0.000696052836        -146.543053
                     0.0273828988         72.6023967        0.025259645        -58.7270477     0.000514774395        -136.382796        0.803840256         -11.991607
                      0.803762359        -12.1599865     0.000866848962        -139.381076      0.00677897317         169.866437        0.034440502         68.9437068
                    0.00105202281        -145.157421        0.803750808         -11.928844       0.0344495849         69.0027057       0.0203569078         -136.49757

         1.25e+009      0.0316286775        -56.5798109       0.0288003194         50.6053394        0.797684282        -42.4483838     0.000492901231         177.020912
                     0.0287885115         50.7924446       0.0455783792        -88.6941749     0.000684479403        -132.118972          0.7983885        -42.2944329
                      0.796484501        -42.4622435     0.000231607551        -63.4356831       0.0104948865        -172.965627       0.0359955639         42.1755036
                   0.000323150744         73.3649294         0.79715283        -42.3144187       0.0358956222         42.3472575        0.036494191        -133.608962

          1.3e+009      0.0401572714        -81.2411654        0.022209786         36.9290644        0.792290342        -72.7360552     0.000432107691         160.694354
                     0.0221653911         36.8399568       0.0573117235        -116.585913     0.000949226687        -147.982733        0.791194367        -72.5279331
                      0.792490223        -72.7224292      0.00077483437        -115.919679       0.0144341975         166.844708        0.027691758         12.7116912
                  5.09777716e-005         2.75965924        0.791402524        -72.5126068       0.0275516295         12.7851805       0.0486454611        -152.055885

         1.35e+009      0.0404878103        -103.230204       0.0135121111         53.9188952         0.78677087        -102.932382      0.00114425768        -174.215331
                     0.0136937577         54.2845949       0.0571198487        -143.325095      0.00111556363        -164.530528        0.786378464        -102.655719
                      0.786088399        -102.967583      0.00100861046         152.753101       0.0155458744         135.573511       0.0108416353        -24.9017856
                    0.00115140751         148.875357        0.785530068        -102.697145       0.0106727484        -24.7438655       0.0516057875        -175.282314

          1.4e+009      0.0353320561         -118.41117       0.0209565178         91.1810413         0.78027847        -133.175092    7.49190162e-005        -92.5580385
                     0.0210460624         91.0679416       0.0462987305        -165.327089     0.000900575855         79.1519785        0.777121341        -132.805159
                      0.780708531        -133.182995      0.00125135984         112.331985       0.0134283656          96.307794       0.0109335834         155.165363
                   0.000776755215         163.550294        0.777694387        -132.816983        0.010991817         154.476386        0.044368162         161.450957

         1.45e+009      0.0288263502        -123.789467       0.0369045125          83.378634        0.773424046        -163.429064      0.00070332576        -61.4645663
                     0.0370513286         83.3699469       0.0296776702        -176.302023     0.000327814335         2.53389068        0.771882005        -163.075796
                      0.775012079        -163.386209     0.000415233671        -144.948511      0.00941143929         48.7736384       0.0305368677         117.324408
