! Created Thu Jan 22 18:34:28 2015
# hz S ma R 50
! 4 Port Network Data from SP1.SP block
! freq  magS11  angS11  magS12  angS12  magS13  angS13  magS14  angS14  
!       magS21  angS21  magS22  angS22  magS23  angS23  magS24  angS24  
!       magS31  angS31  magS32  angS32  magS33  angS33  magS34  angS34  
!       magS41  angS41  magS42  angS42  magS43  angS43  magS44  angS44  
!     
            1e+009      0.0246686304        -76.6231406       0.0282337684          19.119579        0.827222807           108.7654     0.000426076466         70.0092633
                      0.028357687         19.2640787        0.047048953        -128.545032     0.000785223776         80.6867136        0.825807128         108.943017
                      0.827302257         108.774901     0.000615024441         134.423499      0.00764650752        -142.786712        0.027402822         37.6969315
                   0.000433867735         161.579544        0.825829586         108.927651       0.0273572189         37.9295506       0.0487804644        -132.422566

            2e+009      0.0153864187        -83.2708654       0.0269441626         10.7741612        0.720110253        -134.652964      0.00328612824        -140.286063
                     0.0270720545         10.6484343    8.94715803e-005          113.40521       0.0035981722        -138.029659        0.719103426        -134.125422
                      0.721645494        -134.744116      0.00406038573        -133.079485       0.0313969815        -57.4081142        0.026641973         26.7074924
                    0.00371118498         -136.31604        0.720944369        -134.211204       0.0265332339         26.4976212       0.0248964709         -87.577395

            3e+009      0.0560872459        -126.899296       0.0278306744         23.7306703        0.636140306        -15.9206686      0.00661284075        -122.928937
                     0.0277268958         23.9203787       0.0751848332        -110.837196      0.00584787834         -102.59857        0.637403796         -15.155268
                      0.634963124        -15.9106737      0.00710923919        -90.9771976       0.0169312237         -103.09998       0.0326335616         37.5324434
                    0.00744267212        -109.900763        0.636371866        -15.1505893       0.0323542681           37.49836       0.0299919402         -66.586948

            4e+009       0.108514959        -143.125331       0.0185035795         -21.281745         0.57445053         103.562626      0.00473056857       -0.768709365
                     0.0183711759        -21.3191484        0.122590545        -148.269576      0.00443338183         11.5784202         0.57432325         104.337589
                      0.570781455         103.943916      0.00320253676         13.6810832       0.0678245884         -106.47075       0.0410158981         12.6002013
                    0.00341520465        -2.98370859        0.570588018         104.698844       0.0407946981         12.7538794       0.0855814455        -115.226893

            5e+009       0.146619756          174.06829       0.0265693204         124.754348         0.51169752        -135.949394      0.00740538926         112.799681
                     0.0263931612         125.123409        0.133376577         163.491238      0.00580132807         132.289591        0.512716147        -134.751229
                      0.509387394        -136.436648      0.00573001499         137.343097        0.113374827        -133.033315       0.0289023286         5.71504488
                    0.00721260257         118.013674        0.510307077        -135.228842       0.0294234957         5.52615635       0.0965925045        -148.839251

            6e+009       0.120170494         126.722871       0.0556219729         85.7222985        0.449554761        -14.4721282      0.00905076838        -158.498328
                     0.0555692401         86.0650228        0.122045025         117.553287      0.00638857617        -143.722106        0.450607855        -13.3048134
                      0.458939513        -14.6664874      0.00569942203        -135.467184         0.11372253        -171.397999       0.0352963504         41.0448063
                    0.00806112786        -154.651094        0.460014099        -13.4730489       0.0349229783         40.6950187       0.0916210934        -178.460925

            7e+009      0.0462888788         78.1228509       0.0625778232         50.7632978        0.410940529         107.399571      0.00771539014        -41.2059125
                     0.0628899764         50.5527796       0.0746390949         64.9423762      0.00452350244        -29.2286252        0.410681203         108.533953
                       0.40723693           107.5627      0.00606547363        -41.2896584       0.0879423668         135.754434       0.0399289134         26.9928264
                    0.00921796106         -46.051529        0.406865646         108.676837       0.0400259458          27.843184       0.0848673625         132.478987

            8e+009      0.0280734693        -97.0493187       0.0634485805         39.2410564         0.36854668        -130.669664      0.00708175175         86.8141621
                     0.0632762403         39.2261465       0.0522846056        -62.6672095      0.00375557529         124.684168        0.367670876        -129.311749
                      0.366247568        -130.430728      0.00361355888         77.2067703       0.0363242861          50.458202       0.0378193955         65.0820626
                    0.00823890833         64.8223358        0.365340006        -129.071757         0.03791595         64.3076622       0.0536151896         26.3415396

            9e+009      0.0519295997        -162.014978        0.062376477         35.3684935        0.329775013        -8.00899236      0.00625706372        -160.257696
                     0.0625549669          35.700949       0.0825084816        -158.161192      0.00449709751          -108.6057        0.326768669        -6.26748741
                       0.33305358        -8.48193551      0.00379267187        -135.225181       0.0307126049        -36.8146427       0.0733651734         69.9143787
                    0.00728599522        -177.815308        0.330061421        -6.74748572       0.0725508968         70.0792302       0.0801791712        -53.3817208

            1e+010      0.0529419321         133.365874       0.0422721734          21.159502         0.29979913          113.57701      0.00805098464        -81.4781363
                     0.0427035949         20.7973832       0.0879852236         130.447429      0.00384131599        -91.0846991        0.296741388         115.613468
                      0.301054921         113.556584      0.00479474327        -39.3540498       0.0539782732        -129.092722       0.0932916453         52.5077523
                    0.00862432353        -56.7250646        0.298152462         115.601172       0.0931465531          53.167259       0.0998783162        -122.259138

