! freq	real(S11)	imag(S11)	real(S12)	imag(S12)	real(S13)	imag(S13)	
!     	real(S14)	imag(S14)	
!     	real(S21)	imag(S21)	real(S22)	imag(S22)	real(S23)	imag(S23)	
!     	real(S24)	imag(S24)	
!     	real(S31)	imag(S31)	real(S32)	imag(S32)	real(S33)	imag(S33)	
!     	real(S34)	imag(S34)	
!     	real(S41)	imag(S41)	real(S42)	imag(S42)	real(S43)	imag(S43)	
!     	real(S44)	imag(S44)	
!port1: p1  port2: p2  port3: p3  port4: p4
#  MHz  S  RI  R 50
0.000000000	0.001274289	0.000000000	0.998690288	0.000000000	0.000089779	0.000000000	-0.000088582	0.000000000
		0.998690288	0.000000000	0.001274678	-0.000000000	-0.000088582	0.000000000	0.000089826	-0.000000000
		0.000089777	0.000000000	-0.000088584	0.000000000	0.001281835	-0.000000000	0.998683113	0.000000000
		-0.000088585	0.000000000	0.000089823	-0.000000000	0.998683113	0.000000000	0.001281986	-0.000000000
5.000000000	0.001578986	0.000059675	0.998373226	-0.003043818	0.000215712	0.000029615	-0.000121081	-0.000011751
		0.998373226	-0.003043818	0.001579375	0.000058903	-0.000121077	-0.000011752	0.000215567	0.000029538
		0.000215710	0.000029614	-0.000121079	-0.000011752	0.001589989	0.000061693	0.998364175	-0.003061186
		-0.000121083	-0.000011751	0.000215565	0.000029537	0.998364175	-0.003061186	0.001590475	0.000060808
10.000000000	0.001880558	0.000142349	0.998046891	-0.006085702	0.000332902	0.000093162	-0.000151830	-0.000029750
		0.998046891	-0.006085702	0.001881029	0.000140503	-0.000151823	-0.000029753	0.000332608	0.000092894
		0.000332901	0.000093162	-0.000151825	-0.000029753	0.001894822	0.000147264	0.998035858	-0.006120416
		-0.000151833	-0.000029751	0.000332607	0.000092894	0.998035858	-0.006120416	0.001895736	0.000145171
15.000000000	0.002177703	0.000247854	0.997711290	-0.009125625	0.000434525	0.000188498	-0.000179931	-0.000053741
		0.997711290	-0.009125625	0.002178371	0.000244637	-0.000179920	-0.000053744	0.000434161	0.000187939
		0.000434523	0.000188498	-0.000179922	-0.000053745	0.002194947	0.000256529	0.997698169	-0.009177661
		-0.000179933	-0.000053742	0.000434159	0.000187939	0.997698169	-0.009177661	0.002196424	0.000252912
20.000000000	0.002469129	0.000375956	0.997366433	-0.012163558	0.000514219	0.000312263	-0.000204521	-0.000083350
		0.997366433	-0.012163558	0.002470142	0.000371083	-0.000204505	-0.000083354	0.000513895	0.000311337
		0.000514218	0.000312262	-0.000204506	-0.000083355	0.002488986	0.000389235	0.997351118	-0.012232893
		-0.000204523	-0.000083351	0.000513894	0.000311336	0.997351118	-0.012232893	0.002491197	0.000383790
25.000000000	0.002753554	0.000526359	0.997012329	-0.015199473	0.000566290	0.000459975	-0.000224787	-0.000118096
		0.997012329	-0.015199473	0.002755095	0.000519553	-0.000224765	-0.000118101	0.000566141	0.000458637
		0.000566289	0.000459974	-0.000224767	-0.000118102	0.002775576	0.000545055	0.996994714	-0.015286083
		-0.000224789	-0.000118097	0.000566140	0.000458636	0.996994714	-0.015286083	0.002778731	0.000537491
30.000000000	0.003029714	0.000698700	0.996648986	-0.018233342	0.000585891	0.000626156	-0.000239980	-0.000157393
		0.996648986	-0.018233342	0.003031996	0.000689701	-0.000239952	-0.000157398	0.000586071	0.000624398
		0.000585890	0.000626155	-0.000239953	-0.000157399	0.003053370	0.000723595	0.996628966	-0.018337203
		-0.000239981	-0.000157393	0.000586070	0.000624397	0.996628966	-0.018337203	0.003057714	0.000713637
35.000000000	0.003296359	0.000892553	0.996276415	-0.021265137	0.000569187	0.000804481	-0.000249424	-0.000200559
		0.996276415	-0.021265137	0.003299628	0.000881116	-0.000249390	-0.000200564	0.000569858	0.000802337
		0.000569186	0.000804480	-0.000249391	-0.000200565	0.003321040	0.000924388	0.996253884	-0.021386223
		-0.000249425	-0.000200560	0.000569857	0.000802336	0.996253884	-0.021386223	0.003326855	0.000911783
40.000000000	0.003552264	0.001107430	0.995894624	-0.024294830	0.000513490	0.000987958	-0.000252532	-0.000246829
		0.995894624	-0.024294830	0.003556794	0.001093329	-0.000252491	-0.000246833	0.000514814	0.000985507
		0.000513489	0.000987957	-0.000252491	-0.000246834	0.003577284	0.001146901	0.995869477	-0.024433116
		-0.000252533	-0.000246829	0.000514814	0.000985506	0.995869477	-0.024433116	0.003584884	0.001131415
45.000000000	0.003796226	0.001342780	0.995503622	-0.027322393	0.000417364	0.001169126	-0.000248813	-0.000295358
		0.995503622	-0.027322393	0.003802321	0.001325811	-0.000248764	-0.000295361	0.000419494	0.001166490
		0.000417364	0.001169125	-0.000248764	-0.000295361	0.003820824	0.001390531	0.995475755	-0.027477852
		-0.000248814	-0.000295359	0.000419494	0.001166489	0.995475755	-0.027477852	0.003830557	0.001371959
50.000000000	0.004027068	0.001597991	0.995103420	-0.030347797	0.000280701	0.001340267	-0.000237882	-0.000345241
		0.995103420	-0.030347797	0.004035061	0.001577973	-0.000237823	-0.000345241	0.000283767	0.001337614
		0.000280700	0.001340266	-0.000237824	-0.000345241	0.004050415	0.001654613	0.995072726	-0.030520404
		-0.000237882	-0.000345242	0.000283767	0.001337613	0.995072726	-0.030520404	0.004062660	0.001632775
55.000000000	0.004189856	0.001546487	0.994810963	-0.033101338	0.000302508	0.001459466	-0.000249026	-0.000366505
		0.994810963	-0.033101338	0.004198430	0.001523527	-0.000248956	-0.000366507	0.000306024	0.001456334
		0.000302508	0.001459466	-0.000248957	-0.000366508	0.004213420	0.001606558	0.994778039	-0.033289499
		-0.000249026	-0.000366505	0.000306024	0.001456334	0.994778039	-0.033289499	0.004227287	0.001581654
60.000000000	0.004352434	0.001488022	0.994510888	-0.035853491	0.000323822	0.001578761	-0.000259902	-0.000387927
		0.994510888	-0.035853491	0.004361494	0.001461953	-0.000259821	-0.000387933	0.000327825	0.001575144
		0.000323822	0.001578761	-0.000259821	-0.000387933	0.004376337	0.001551720	0.994475648	-0.036057186
		-0.000259902	-0.000387927	0.000327825	0.001575144	0.994475648	-0.036057186	0.004391737	0.001523516
65.000000000	0.004514559	0.001422579	0.994203202	-0.038604233	0.000344643	0.001698151	-0.000270509	-0.000409506
		0.994203202	-0.038604233	0.004523998	0.001393233	-0.000270415	-0.000409515	0.000349170	0.001694043
		0.000344643	0.001698150	-0.000270416	-0.000409516	0.004538937	0.001490079	0.994165558	-0.038823445
		-0.000270509	-0.000409506	0.000349169	0.001694043	0.994165558	-0.038823445	0.004555768	0.001458342
70.000000000	0.004675989	0.001350146	0.993887908	-0.041353544	0.000364970	0.001817633	-0.000280845	-0.000431239
		0.993887908	-0.041353544	0.004685689	0.001317360	-0.000280738	-0.000431252	0.000370057	0.001813030
		0.000364970	0.001817632	-0.000280738	-0.000431252	0.004700990	0.001421621	0.993847775	-0.041588255
		-0.000280845	-0.000431239	0.000370057	0.001813030	0.993847775	-0.041588255	0.004719135	0.001386120
75.000000000	0.004836479	0.001270721	0.993565014	-0.044101404	0.000384803	0.001937205	-0.000290909	-0.000453123
		0.993565014	-0.044101404	0.004846313	0.001234334	-0.000290788	-0.000453140	0.000390488	0.001932103
		0.000384802	0.001937205	-0.000290788	-0.000453141	0.004862264	0.001346338	0.993522305	-0.044351594
		-0.000290909	-0.000453123	0.000390488	0.001932103	0.993522305	-0.044351594	0.004881592	0.001306845
80.000000000	0.004995786	0.001184309	0.993234524	-0.046847790	0.000404141	0.002056868	-0.000300699	-0.000475156
		0.993234524	-0.046847790	0.005005613	0.001144163	-0.000300563	-0.000475178	0.000410462	0.002051261
		0.000404141	0.002056868	-0.000300563	-0.000475178	0.005022527	0.001264233	0.993189153	-0.047113441
		-0.000300699	-0.000475156	0.000410462	0.002051261	0.993189153	-0.047113441	0.005042895	0.001220523
85.000000000	0.005153666	0.001090922	0.992896444	-0.049592681	0.000422985	0.002176618	-0.000310213	-0.000497335
		0.992896444	-0.049592681	0.005163335	0.001046864	-0.000310062	-0.000497361	0.000429978	0.002170503
		0.000422985	0.002176618	-0.000310062	-0.000497361	0.005181547	0.001175311	0.992848325	-0.049873774
		-0.000310214	-0.000497335	0.000429978	0.002170503	0.992848325	-0.049873774	0.005202797	0.001127163
90.000000000	0.005309873	0.000990581	0.992550780	-0.052336058	0.000441334	0.002296455	-0.000319451	-0.000519657
		0.992550780	-0.052336058	0.005319224	0.000942462	-0.000319283	-0.000519688	0.000449037	0.002289827
		0.000441334	0.002296455	-0.000319283	-0.000519689	0.005339091	0.001079587	0.992499828	-0.052632573
		-0.000319451	-0.000519657	0.000449037	0.002289827	0.992499828	-0.052632573	0.005361052	0.001026786
95.000000000	0.005464164	0.000883313	0.992197538	-0.055077899	0.000459187	0.002416377	-0.000328410	-0.000542120
		0.992197538	-0.055077899	0.005473025	0.000830991	-0.000328225	-0.000542157	0.000467638	0.002409232
		0.000459187	0.002416377	-0.000328225	-0.000542157	0.005494928	0.000977085	0.992143666	-0.055389815
		-0.000328411	-0.000542120	0.000467637	0.002409232	0.992143666	-0.055389815	0.005517415	0.000919418
100.000000000	0.005616295	0.000769156	0.991836723	-0.057818183	0.000476545	0.002536383	-0.000337090	-0.000564721
		0.991836723	-0.057818183	0.005624484	0.000712491	-0.000336886	-0.000564763	0.000485780	0.002528716
		0.000476545	0.002536383	-0.000336886	-0.000564763	0.005648824	0.000867832	0.991779846	-0.058145479
		-0.000337090	-0.000564720	0.000485780	0.002528716	0.991779846	-0.058145479	0.005671640	0.000805094
105.000000000	0.005754021	0.000665174	0.991485960	-0.060515383	0.000500858	0.002654233	-0.000347220	-0.000584344
		0.991485960	-0.060515383	0.005760814	0.000603175	-0.000346996	-0.000584391	0.000510814	0.002646074
		0.000500858	0.002654233	-0.000346996	-0.000584391	0.005786265	0.000766997	0.991426068	-0.060857876
		-0.000347220	-0.000584344	0.000510814	0.002646074	0.991426068	-0.060857876	0.005807799	0.000697420
110.000000000	0.005889803	0.000555738	0.991127863	-0.063211099	0.000525358	0.002772047	-0.000357272	-0.000604009
		0.991127863	-0.063211099	0.005894991	0.000488278	-0.000357027	-0.000604063	0.000536062	0.002763389
		0.000525358	0.002772047	-0.000357027	-0.000604063	0.005921900	0.000660848	0.991064873	-0.063568769
		-0.000357272	-0.000604009	0.000536062	0.002763389	0.991064873	-0.063568769	0.005941895	0.000584258
115.000000000	0.006023472	0.000440884	0.990762439	-0.065905310	0.000550044	0.002889824	-0.000367247	-0.000623718
		0.990762439	-0.065905310	0.006026836	0.000367840	-0.000366980	-0.000623778	0.000561523	0.002880660
		0.000550044	0.002889824	-0.000366980	-0.000623778	0.006055567	0.000549419	0.990696267	-0.066278137
		-0.000367247	-0.000623718	0.000561523	0.002880660	0.990696267	-0.066278137	0.006073754	0.000465647
120.000000000	0.006154861	0.000320655	0.990389692	-0.068597997	0.000574916	0.003007564	-0.000377144	-0.000643468
		0.990389692	-0.068597997	0.006156172	0.000241912	-0.000376855	-0.000643535	0.000587197	0.002997887
		0.000574916	0.003007564	-0.000376855	-0.000643535	0.006187106	0.000432747	0.990320256	-0.068985959
		-0.000377144	-0.000643468	0.000587197	0.002997887	0.990320256	-0.068985959	0.006203204	0.000341634
125.000000000	0.006283803	0.000195096	0.990009629	-0.071289139	0.000599974	0.003125266	-0.000386964	-0.000663261
		0.990009629	-0.071289139	0.006282824	0.000110546	-0.000386651	-0.000663334	0.000613085	0.003115069
		0.000599974	0.003125266	-0.000386651	-0.000663334	0.006316357	0.000310872	0.989936845	-0.071692216
		-0.000386964	-0.000663261	0.000613085	0.003115069	0.989936845	-0.071692216	0.006330073	0.000212267
130.000000000	0.006410131	0.000064258	0.989622255	-0.073978717	0.000625219	0.003242930	-0.000396706	-0.000683095
		0.989622255	-0.073978717	0.006406616	-0.000026198	-0.000396369	-0.000683176	0.000639185	0.003232207
		0.000625219	0.003242930	-0.000396369	-0.000683176	0.006443161	0.000183841	0.989546041	-0.074396887
		-0.000396706	-0.000683095	0.000639185	0.003232207	0.989546041	-0.074396887	0.006454192	0.000077602
135.000000000	0.006533681	-0.000071803	0.989227575	-0.076666711	0.000650650	0.003360556	-0.000406370	-0.000702971
		0.989227575	-0.076666711	0.006527374	-0.000168259	-0.000406008	-0.000703060	0.000665498	0.003349300
		0.000650650	0.003360556	-0.000406008	-0.000703060	0.006567360	0.000051704	0.989147849	-0.077099952
		-0.000406370	-0.000702971	0.000665498	0.003349300	0.989147849	-0.077099952	0.006575390	-0.000062302
140.000000000	0.006654289	-0.000213028	0.988825597	-0.079353101	0.000676267	0.003478144	-0.000415957	-0.000722888
		0.988825597	-0.079353101	0.006644927	-0.000315566	-0.000415569	-0.000722985	0.000692024	0.003466348
		0.000676267	0.003478144	-0.000415569	-0.000722985	0.006688798	-0.000085484	0.988742274	-0.079801391
		-0.000415957	-0.000722888	0.000692024	0.003466348	0.988742274	-0.079801391	0.006693500	-0.000207381
145.000000000	0.006771793	-0.000359350	0.988416324	-0.082037867	0.000702071	0.003595693	-0.000425465	-0.000742846
		0.988416324	-0.082037867	0.006759102	-0.000468047	-0.000425050	-0.000742952	0.000718764	0.003583351
		0.000702071	0.003595693	-0.000425050	-0.000742952	0.006807320	-0.000227666	0.988329324	-0.082501184
		-0.000425465	-0.000742846	0.000718764	0.003583351	0.988329324	-0.082501184	0.006808356	-0.000357564
150.000000000	0.006886031	-0.000510701	0.987999764	-0.084720990	0.000728060	0.003713204	-0.000434895	-0.000762845
		0.987999764	-0.084720990	0.006869733	-0.000625624	-0.000434452	-0.000762959	0.000745716	0.003700307
		0.000728060	0.003713204	-0.000434452	-0.000762959	0.006922769	-0.000374777	0.987909003	-0.085199310
		-0.000434895	-0.000762845	0.000745716	0.003700307	0.987909003	-0.085199310	0.006919792	-0.000512777
155.000000000	0.006981530	-0.000647307	0.987617918	-0.087360161	0.000756104	0.003826570	-0.000443590	-0.000780627
		0.987617918	-0.087360161	0.006962256	-0.000767161	-0.000443123	-0.000780756	0.000774738	0.003812937
		0.000756104	0.003826570	-0.000443123	-0.000780756	0.007017758	-0.000508042	0.987523571	-0.087853152
		-0.000443590	-0.000780627	0.000774738	0.003812937	0.987523571	-0.087853152	0.007012860	-0.000650955
160.000000000	0.007074298	-0.000787601	0.987229023	-0.089997893	0.000784482	0.003939862	-0.000452237	-0.000798434
		0.987229023	-0.089997893	0.007051844	-0.000912421	-0.000451743	-0.000798579	0.000804121	0.003925483
		0.000784482	0.003939862	-0.000451743	-0.000798579	0.007110155	-0.000644883	0.987131011	-0.090505533
		-0.000452237	-0.000798434	0.000804121	0.003925483	0.987131011	-0.090505533	0.007103146	-0.000792767
165.000000000	0.007164230	-0.000931529	0.986833085	-0.092634166	0.000813192	0.004053078	-0.000460835	-0.000816267
		0.986833085	-0.092634166	0.007138391	-0.001061342	-0.000460314	-0.000816428	0.000833864	0.004037945
		0.000813192	0.004053078	-0.000460314	-0.000816428	0.007199862	-0.000785248	0.986731328	-0.093156436
		-0.000460835	-0.000816267	0.000833864	0.004037945	0.986731328	-0.093156436	0.007190548	-0.000938157
170.000000000	0.007251224	-0.001079033	0.986430109	-0.095268962	0.000842236	0.004166219	-0.000469384	-0.000834126
		0.986430109	-0.095268962	0.007221789	-0.001213860	-0.000468835	-0.000834303	0.000863968	0.004150322
		0.000842236	0.004166219	-0.000468835	-0.000834303	0.007286781	-0.000929086	0.986324527	-0.095805839
		-0.000469384	-0.000834126	0.000863968	0.004150322	0.986324527	-0.095805839	0.007274963	-0.001087066
175.000000000	0.007335180	-0.001230053	0.986020098	-0.097902262	0.000871612	0.004279283	-0.000477884	-0.000852010
		0.986020098	-0.097902262	0.007301933	-0.001369908	-0.000477307	-0.000852203	0.000894432	0.004262613
		0.000871612	0.004279283	-0.000477307	-0.000852203	0.007370817	-0.001076340	0.985910615	-0.098453725
		-0.000477884	-0.000852010	0.000894432	0.004262613	0.985910615	-0.098453725	0.007356292	-0.001239431
180.000000000	0.007415996	-0.001384526	0.985603060	-0.100534047	0.000901321	0.004392270	-0.000486335	-0.000869919
		0.985603060	-0.100534047	0.007378721	-0.001529418	-0.000485728	-0.000870130	0.000925256	0.004374817
		0.000901321	0.004392270	-0.000485728	-0.000870130	0.007451873	-0.001226951	0.985489595	-0.101100075
		-0.000486335	-0.000869919	0.000925256	0.004374817	0.985489595	-0.101100075	0.007434434	-0.001395190
185.000000000	0.007493576	-0.001542388	0.985178998	-0.103164298	0.000931362	0.004505179	-0.000494737	-0.000887854
		0.985178998	-0.103164298	0.007452049	-0.001692317	-0.000494100	-0.000888081	0.000956439	0.004486933
		0.000931362	0.004505179	-0.000494100	-0.000888081	0.007529856	-0.001380861	0.985061473	-0.103744868
		-0.000494737	-0.000887853	0.000956439	0.004486933	0.985061473	-0.103744868	0.007509292	-0.001554276
190.000000000	0.007567820	-0.001703572	0.984747919	-0.105792998	0.000961736	0.004618009	-0.000503090	-0.000905813
		0.984747919	-0.105792998	0.007521817	-0.001858531	-0.000502422	-0.000906058	0.000987983	0.004598961
		0.000961736	0.004618009	-0.000502422	-0.000906058	0.007604672	-0.001538006	0.984626255	-0.106388087
		-0.000503090	-0.000905813	0.000987983	0.004598961	0.984626255	-0.106388087	0.007580770	-0.001716620
195.000000000	0.007638634	-0.001868006	0.984309826	-0.108420126	0.000992442	0.004730760	-0.000511394	-0.000923798
		0.984309826	-0.108420126	0.007587927	-0.002027984	-0.000510694	-0.000924061	0.001019885	0.004710899
		0.000992442	0.004730760	-0.000510694	-0.000924061	0.007676229	-0.001698322	0.984183945	-0.109029712
		-0.000511394	-0.000923798	0.001019885	0.004710900	0.984183945	-0.109029712	0.007648772	-0.001882150
200.000000000	0.007705923	-0.002035619	0.983864727	-0.111045664	0.001023480	0.004843430	-0.000519648	-0.000941807
		0.983864727	-0.111045664	0.007650280	-0.002200594	-0.000518916	-0.000942089	0.001052147	0.004822748
		0.001023480	0.004843430	-0.000518916	-0.000942088	0.007744438	-0.001861741	0.983734550	-0.111669724
		-0.000519648	-0.000941807	0.001052147	0.004822748	0.983734550	-0.111669724	0.007713205	-0.002050793
205.000000000	0.007773961	-0.002183399	0.983440082	-0.113656574	0.001055413	0.004953617	-0.000527684	-0.000958968
		0.983440082	-0.113656574	0.007714265	-0.002353410	-0.000526923	-0.000959273	0.001085228	0.004931956
		0.001055413	0.004953617	-0.000526923	-0.000959273	0.007811992	-0.002006088	0.983305740	-0.114294991
		-0.000527684	-0.000958968	0.001085228	0.004931956	0.983305740	-0.114294991	0.007779267	-0.002200125
210.000000000	0.007839242	-0.002333779	0.983008510	-0.116266009	0.001087716	0.005063710	-0.000535681	-0.000976148
		0.983008510	-0.116266009	0.007775293	-0.002508831	-0.000534891	-0.000976477	0.001118703	0.005041061
		0.001087716	0.005063710	-0.000534891	-0.000976477	0.007876913	-0.002152960	0.982869925	-0.116918761
		-0.000535681	-0.000976148	0.001118703	0.005041061	0.982869925	-0.116918761	0.007842514	-0.002352039
215.000000000	0.007901703	-0.002486708	0.982570015	-0.118873950	0.001120391	0.005173709	-0.000543639	-0.000993348
		0.982570015	-0.118873950	0.007833295	-0.002666803	-0.000542820	-0.000993701	0.001152572	0.005150062
		0.001120391	0.005173709	-0.000542820	-0.000993701	0.007939137	-0.002302309	0.982427110	-0.119541015
		-0.000543639	-0.000993348	0.001152572	0.005150062	0.982427110	-0.119541015	0.007902881	-0.002506485
220.000000000	0.007961280	-0.002642135	0.982124602	-0.121480379	0.001153436	0.005283612	-0.000551559	-0.001010568
		0.982124602	-0.121480379	0.007888206	-0.002827268	-0.000550709	-0.001010945	0.001186835	0.005258957
		0.001153436	0.005283612	-0.000550709	-0.001010945	0.007998604	-0.002454086	0.981977300	-0.122161734
		-0.000551559	-0.001010568	0.001186835	0.005258957	0.981977300	-0.122161734	0.007960304	-0.002663408
225.000000000	0.008017910	-0.002800007	0.981672276	-0.124085276	0.001186851	0.005393420	-0.000559440	-0.001027807
		0.981672276	-0.124085276	0.007939962	-0.002990166	-0.000558559	-0.001028209	0.001221491	0.005367745
		0.001186851	0.005393420	-0.000558559	-0.001028209	0.008055253	-0.002608243	0.981520500	-0.124780900
		-0.000559440	-0.001027807	0.001221491	0.005367745	0.981520500	-0.124780900	0.008014720	-0.002822754
230.000000000	0.008071533	-0.002960269	0.981213042	-0.126688625	0.001220637	0.005503130	-0.000567282	-0.001045065
