!
! FILE: sample_channel.s4p
!
# MHz S MA R 50.00
!
! FREQ                  S11                         S12                         S13                         S14
!                       S21                         S22                         S23                         S24
!                       S31                         S32                         S33                         S34
!                       S41                         S42                         S43                         S44                         
!                       
!                  MAG       ANG               MAG       ANG               MAG       ANG               MAG       ANG               
  10.000       0.025677   -46.578212       0.997859    -5.944747       0.003302    70.346674       0.001234   119.607800    
               0.980155    -7.471324       0.021361     2.796256       0.000622    42.934495       0.003224    88.249933    
               0.002836    80.702319       0.000150   108.079471       0.021618   -27.874974       0.989294    -6.379311    
               0.000789   120.399797       0.002874    64.687796       0.968674    -7.994566       0.025070     7.679950    
            
  20.000       0.017766   -40.607123       0.976956   -16.357362       0.005821    75.536164       0.000446    81.154880    
               0.976397   -16.965797       0.024757   -32.106708       0.000632    83.461464       0.005309    69.347695    
               0.005118    68.233969       0.000511    59.915167       0.021158   -30.661407       0.968012   -16.650752    
               0.000362    80.599577       0.005908    70.526997       0.968521   -17.346851       0.026937   -28.161343    
            
  30.000       0.019730   -43.884513       0.971837   -24.836364       0.008253    63.636487       0.000559    71.730833    
               0.973105   -25.187770       0.025896   -51.216492       0.000648    82.158780       0.008204    63.406110    
               0.008287    62.665662       0.000664    71.835087       0.022467   -41.241600       0.958479   -24.980777    
               0.000554    61.920381       0.008200    63.000228       0.961012   -25.417019       0.027551   -46.773615    
            
  40.000       0.023234   -54.673246       0.969727   -33.347047       0.010660    55.707983       0.000904    61.448028    
               0.971821   -33.645378       0.027514   -66.174611       0.000839    50.017416       0.010707    55.745877    
               0.010877    54.976738       0.000626    60.885212       0.024085   -56.336910       0.956175   -33.199868    
               0.000625    55.584993       0.010759    54.624298       0.959730   -33.612223       0.028180   -62.914456    
            
  50.000       0.024926   -66.134671       0.968775   -41.672437       0.012985    47.909505       0.001218    34.133075    
               0.970106   -41.966612       0.028187   -78.049324       0.000838    34.567191       0.012834    48.119157    
               0.013008    47.752119       0.001267    46.931128       0.024468   -67.533130       0.955990   -41.752278    
               0.001241    40.967494       0.013365    47.048903       0.957888   -42.097426       0.028089   -72.737165    
            
  60.000       0.027320   -80.316037       0.966308   -50.030709       0.014919    39.294720       0.001168    29.605764    
               0.967008   -50.336423       0.029895   -87.280586       0.001044    25.700480       0.015065    38.510932    
               0.015072    38.634986       0.001099    27.185904       0.025347   -84.162793       0.955623   -50.020895    
               0.001267    24.120235       0.015463    38.678603       0.956295   -50.341896       0.028913   -84.598096    
            
  70.000       0.029275   -93.118835       0.963959   -58.341919       0.017117    30.910032       0.001474    17.250905    
               0.964065   -58.532051       0.030888   -96.606481       0.001360    15.485904       0.016997    31.078170    
               0.016889    30.735291       0.001312    10.610916       0.025887   -96.532186       0.954876   -58.358468    
               0.001433    20.195806       0.017343    31.004434       0.955456   -58.577113       0.029963   -93.263725    
            
  80.000       0.029603  -105.525565       0.961284   -66.644444       0.018536    23.457763       0.001505     4.245093    
               0.961735   -66.842844       0.031721  -107.011049       0.001502     8.465237       0.018588    23.696306    
               0.018676    22.785331       0.001426    -1.769501       0.024908  -108.847117       0.953161   -66.761022    
               0.001695    11.199314       0.018857    22.791629       0.954670   -66.964934       0.031003  -102.347516    
            
  90.000       0.029319  -117.763128       0.958796   -74.937632       0.019936    14.689798       0.001721   -11.004258    
               0.959417   -75.140967       0.031894  -117.303529       0.001722   -10.771261       0.020074    14.828847    
               0.019790    14.449589       0.001500    -6.466338       0.024994  -120.779953       0.951252   -75.122911    
               0.001578    -7.584122       0.019910    15.066208       0.952055   -75.342590       0.032026  -111.916523    
            
 100.000       0.028639  -127.805180       0.956717   -83.224949       0.020620     6.687000       0.001830    -9.795946    
               0.956446   -83.353864       0.030651  -126.935351       0.001507   -19.934724       0.020709     7.029187    
               0.020730     6.249282       0.001801   -15.908687       0.024598  -131.013348       0.947932   -83.461408    
               0.001636   -24.244231       0.020976     6.776783       0.948201   -83.692149       0.031650  -121.953492    
            
 110.000       0.027763  -138.999225       0.955007   -91.501233       0.021250    -1.862388       0.001824   -25.323874    
               0.953968   -91.627810       0.029653  -138.132094       0.001656   -29.049302       0.021383    -1.069294    
               0.021233    -1.670522       0.001695   -26.540740       0.023586  -141.338844       0.944197   -91.719913    
               0.001754   -27.392688       0.021489    -1.428692       0.944646   -91.863900       0.031387  -131.521234    
            
 120.000       0.026455  -148.990802       0.952487   -99.739269       0.021362    -9.620811       0.001814   -35.738320    
               0.952392   -99.842924       0.027482  -148.419800       0.001860   -35.835437       0.021543    -8.861170    
               0.021704    -9.693470       0.001731   -35.062252       0.022908  -152.664225       0.941112   -99.927983    
               0.001914   -39.085434       0.021829    -9.114897       0.941957  -100.035857       0.030156  -140.046013    
            
 130.000       0.024751  -159.878584       0.950313  -107.971633       0.021246   -17.699948       0.001814   -48.132417    
               0.950169  -108.065275       0.025548  -157.570905       0.001673   -46.064159       0.021357   -16.894940    
               0.021317   -17.552842       0.001747   -51.194405       0.021331  -166.118769       0.938560  -108.085204    
               0.001896   -43.057946       0.021709   -16.664249       0.938998  -108.188818       0.028022  -149.571237    
            
 140.000       0.022622  -170.134421       0.948256  -116.198879       0.020974   -25.521574       0.001888   -54.226596    
               0.947984  -116.273437       0.023068  -166.122753       0.001804   -54.182701       0.021045   -24.650515    
               0.021216   -25.599942       0.001702   -52.483831       0.019044  -177.770216       0.937136  -116.244568    
               0.001760   -53.100654       0.021330   -24.724267       0.937334  -116.309944       0.025341  -155.657684    
            
 150.000       0.020030   179.157901       0.945906  -124.402230       0.020184   -32.959094       0.001712   -60.515178    
               0.946527  -124.525512       0.020550  -176.620064       0.001712   -58.050354       0.020416   -32.118442    
               0.020385   -33.662274       0.001782   -60.575113       0.016016   170.543289       0.935893  -124.399791    
               0.001768   -63.935008       0.020469   -32.608404       0.936750  -124.518411       0.022850  -161.542415    
            
 160.000       0.016893   170.490998       0.943790  -132.658032       0.019195   -41.164976       0.001873   -66.123405    
               0.944516  -132.742006       0.017831   175.205964       0.001836   -62.905948       0.019299   -39.823704    
               0.019324   -41.583337       0.001778   -65.110220       0.013050   158.530209       0.935054  -132.660051    
               0.001893   -70.947739       0.019425   -40.386068       0.935978  -132.738888       0.020316  -166.738946    
            
 170.000       0.013584   163.432404       0.941740  -140.862169       0.017796   -48.986003       0.001870   -71.925076    
               0.942547  -140.960085       0.014681   166.738830       0.001747   -72.440416       0.018085   -47.636395    
               0.017899   -49.140568       0.001831   -75.173236       0.009826   145.007980       0.933903  -140.958199    
               0.001838   -72.463267       0.018043   -47.980270       0.934635  -141.008110       0.017890  -170.387411    
            
 180.000       0.010310   159.518313       0.940327  -149.045126       0.016217   -56.985948       0.001951   -82.239312    
               0.940591  -149.078062       0.011548   160.353862       0.001770   -76.187688       0.016312   -54.881635    
               0.016207   -57.100112       0.001688   -76.774159       0.006404   128.499779       0.931979  -149.198176    
               0.001958   -79.817128       0.016452   -55.270191       0.932369  -149.252701       0.015289  -171.969378    
            
 190.000       0.007111   160.529096       0.938739  -157.255584       0.014284   -63.880914       0.002047   -86.164930    
               0.939144  -157.295052       0.007731   155.662865       0.001884   -81.428645       0.014383   -62.344819    
               0.014346   -64.425358       0.001896   -82.685561       0.003298    95.205177       0.929347  -157.436352    
               0.002024   -85.868237       0.014401   -62.195475       0.930362  -157.500160       0.012826  -170.779200    
            
 200.000       0.004188   174.013846       0.936635  -165.425633       0.012189   -71.414472       0.002132   -92.361062    
               0.937095  -165.552730       0.004138   164.287980       0.001857   -88.742260       0.012267   -69.055157    
               0.012244   -71.256316       0.001890   -89.471051       0.002810    11.345262       0.926076  -165.638120    
               0.002063   -92.341515       0.012530   -69.154388       0.927079  -165.699487       0.010815  -163.346362    
            
 210.000       0.002858  -136.527304       0.934934  -173.689761       0.010039   -77.725297       0.002031   -98.223489    
               0.935276  -173.750651       0.002472  -128.315427       0.002051   -92.252407       0.010135   -74.843664    
               0.010035   -77.990759       0.001963   -91.942889       0.006346   -30.575452       0.923912  -173.770659    
               0.002135   -96.751189       0.010181   -74.414616       0.924814  -173.843554       0.009538  -149.867909    
            
 220.000       0.005284  -102.541137       0.933006   178.183407       0.007460   -83.730500       0.002211  -102.102662    
               0.933372   178.129424       0.005607   -92.705802       0.002131  -101.016272       0.007664   -79.375908    
               0.007645   -82.678134       0.002233   -97.986031       0.010488   -49.522295       0.922308   178.096925    
               0.002238  -104.040656       0.007707   -79.841330       0.923073   178.036307       0.010362  -133.821739    
            
 230.000       0.008426   -97.571968       0.931609   170.026218       0.005137   -85.845179       0.002402  -111.033136    
               0.932069   169.978555       0.009403   -91.484881       0.002366  -106.967018       0.005252   -81.514890    
               0.005135   -86.674304       0.002403  -106.007405       0.014530   -64.009010       0.921306   169.936178    
               0.002436  -110.022258       0.005355   -81.709373       0.922270   169.899426       0.012666  -126.020077    
            
 240.000       0.011449   -99.877084       0.930770   161.822807       0.002569   -83.146980       0.002638  -117.157037    
               0.931138   161.778284       0.012664   -95.285256       0.002576  -112.815393       0.003034   -72.495047    
               0.002615   -83.284926       0.002460  -113.906863       0.018107   -76.382434       0.920844   161.711960    
               0.002629  -119.146109       0.002925   -72.428731       0.921569   161.716101       0.015593  -124.547631    
            
 250.000       0.014135  -104.533719       0.930406   153.558226       0.001300   -18.099129       0.002774  -125.876210    
               0.930562   153.532275       0.015473   -99.232138       0.002738  -123.261187       0.001756   -16.815207    
               0.001194   -13.573840       0.002755  -121.070124       0.021324   -87.587278       0.919254   153.542301    
               0.002797  -125.574674       0.001751   -17.433919       0.920525   153.490302       0.018152  -126.211203    
            
 260.000       0.016536  -110.906129       0.927922   145.231342       0.003138    33.453920       0.002871  -134.647524    
               0.928515   145.206808       0.018382  -104.542759       0.002849  -130.950307       0.003363    23.091581    
               0.003023    32.124388       0.002974  -130.022748       0.024150   -97.942076       0.918196   145.273280    
               0.002962  -134.020576       0.003385    23.252268       0.919198   145.259697       0.020472  -129.278408    
            
 270.000       0.018346  -117.618679       0.923802   137.003092       0.005596    34.836228       0.003022  -143.424375    
               0.923854   137.001782       0.020448  -110.890389       0.003089  -138.821753       0.005769    28.456653    
               0.005456    35.222847       0.003025  -137.859034       0.026317  -107.684397       0.916189   137.028993    
               0.003057  -141.188657       0.005724    29.369351       0.916988   137.013644       0.022694  -133.581193    
            
 280.000       0.019165  -122.899923       0.921503   128.911634       0.008054    31.021460       0.003090  -152.180465    
               0.921454   128.909699       0.021869  -117.213483       0.003131  -149.341726       0.008186    26.533854    
               0.008089    31.361584       0.003217  -148.413273       0.027866  -116.738459       0.913360   128.866872    
               0.003193  -152.629237       0.008213    25.836250       0.914306   128.771748       0.024551  -138.743677    
            
 290.000       0.020047  -128.839606       0.919532   120.806957       0.010348    24.834615       0.003355  -160.891210    
               0.919776   120.824309       0.022512  -123.273359       0.003323  -156.849021       0.010469    21.498217    
               0.010428    24.883698       0.003348  -157.985938       0.029087  -125.341730       0.910709   120.696489    
               0.003307  -160.971080       0.010561    21.299243       0.911366   120.620165       0.026110  -143.403362    
            
 300.000       0.020750  -135.374852       0.917835   112.721870       0.012493    18.354317       0.003399  -170.897287    
               0.918072   112.669238       0.022773  -130.384931       0.003366  -166.296360       0.012637    15.324344    
               0.012594    18.301654       0.003364  -166.748918       0.030359  -134.576368       0.908212   112.570124    
               0.003389  -170.801342       0.012689    15.052769       0.908593   112.537379       0.027449  -148.819840    
            
 310.000       0.020814  -142.584099       0.916447   104.435556       0.014462    11.343197       0.003538  -177.416724    
               0.916685   104.405686       0.022139  -137.384861       0.003466  -175.815473       0.014604     8.437251    
               0.014523    11.022470       0.003435  -176.676546       0.030923  -144.166531       0.906277   104.451536    
               0.003469  -178.577428       0.014664     8.283484       0.906953   104.430607       0.028555  -155.384247    
            
 320.000       0.020657  -150.906022       0.914769    96.319343       0.016229     3.785694       0.003561   173.100235    
               0.914761    96.289660       0.021366  -144.253330       0.003516   175.516992       0.016400     1.825999    
               0.016320     3.551565       0.003570   175.149722       0.030308  -153.719437       0.905095    96.304755    
               0.003540   172.327604       0.016418     1.216647       0.905479    96.300769       0.028851  -162.395449    
            
 330.000       0.019767  -159.470086       0.912889    88.151214       0.017752    -3.661487       0.003524   164.976654    
               0.913586    88.138685       0.019844  -150.826534       0.003639   165.995670       0.017929    -5.466771    
               0.017846    -4.092693       0.003522   165.382101       0.029369  -162.805922       0.903855    88.185305    
               0.003580   164.420831       0.017824    -5.829563       0.904643    88.144636       0.028442  -170.188735    
            
 340.000       0.017994  -168.602800       0.911205    79.971573       0.018960   -11.172780       0.003627   156.615894    
               0.912268    79.970036       0.017971  -157.310401       0.003653   157.547122       0.019058   -12.947229    
               0.018989   -11.477446       0.003711   158.321007       0.028109  -171.921694       0.903008    79.993615    
               0.003643   155.590687       0.019161   -13.338635       0.903766    79.982105       0.027151  -177.197781    
            
 350.000       0.015757  -177.225921       0.909010    71.858302       0.019922   -18.825704       0.003638   146.395872    
               0.909831    71.789270       0.015742  -163.568309       0.003622   148.878059       0.020053   -20.334349    
               0.019930   -19.151484       0.003646   148.301872       0.026343  -179.961524       0.900869    71.799777    
               0.003639   147.411527       0.020068   -20.708522       0.902007    71.774834       0.025873   175.488980    
            
 360.000       0.013038   175.465977       0.907334    63.700491       0.020502   -26.304521       0.003581   137.984619    
               0.907720    63.655893       0.013183  -168.366401       0.003645   140.359739       0.020600   -27.857175    
               0.020628   -26.688662       0.003649   140.834826       0.024314   172.032420       0.899115    63.638656    
               0.003706   139.173711       0.020713   -28.203048       0.900150    63.594988       0.023824   168.398450    
            
 370.000       0.009936   168.771975       0.906201    55.543349       0.020787   -33.830923       0.003562   131.415440    
               0.906474    55.527868       0.010542  -171.721868       0.003656   132.722898       0.020953   -35.107578    
               0.020910   -34.308783       0.003698   133.229061       0.022279   164.412047       0.897290    55.461959    
               0.003651   131.364167       0.021041   -35.598604       0.898030    55.455983       0.021510   161.146386    
            
 380.000       0.006599   167.080068       0.904596    47.360124       0.020742   -41.606686       0.003666   124.521979    
