! S11 = S11
! S12 = S12
! S13 = S13
! S14 = S14
! S21 = S21
! S22 = S22
! S23 = S23
! S24 = S24
! S31 = S31
! S32 = S32
! S33 = S33
! S34 = S34
! S41 = S41
! S42 = S42
! S43 = S43
! S44 = S44
!
! FILE: C:\Documents and Settings\cilab\Desktop\Test\JZ_switch\27_C27C28.s4p
!$DUT_CFG_DESC: Default 4 Port Configuration
!$NUMBER_PORTS: 4
!$DIFF_PORT_MAP: 1|2P|2|2P|0|UC|0|UC
!$PORT_MAP: 1|1|<<<<<<|2|2|>>>>>>|3|3|<<<<<<|4|4|>>>>>>
!
# GHz S MA R 50.00
!
! FREQ                  S11                         S12                         S13                         S14
!                       S21                         S22                         S23                         S24
!                       S31                         S32                         S33                         S34
!                       S41                         S42                         S43                         S44
!                       
!                  MAG       ANG               MAG       ANG               MAG       ANG               MAG       ANG               
0.01000000000       0.023767    26.670128       0.003310    70.943703       0.983399    -3.582450       0.001226  -124.518384    ! dummy
                  0.002975    82.324559       0.016201    13.756886       0.000778   -98.227899       0.988000    -3.629680      
                  0.982394    -3.564174       0.000347   -29.229936       0.023103    25.444094       0.002613    89.816770         ! dummy  ! dummy
                  0.000773   112.513996       0.985295    -3.617860       0.001985    53.172066       0.012190     6.648507    
               
0.02000000000       0.021078    -3.729127       0.005169    78.973226       0.988634    -6.776649       0.002048  -109.977141    
                  0.005030    76.723972       0.016961    19.652461       0.001949  -115.018550       0.987150    -6.864183    
                  0.984196    -6.797195       0.001406  -137.238629       0.021199     0.848404       0.004858    78.288925    
                  0.001912  -135.141347       0.984451    -6.749826       0.005124    76.800704       0.015169    19.872908    
               
0.03000000000       0.011260    18.754602       0.007759    74.184919       0.988596   -10.183524       0.002752  -113.137759    
                  0.007829    74.939403       0.019585    22.500626       0.002808  -112.803516       0.986253   -10.245266    
                  0.983212   -10.157826       0.003057  -122.512426       0.011210    24.427472       0.007833    75.959813    
                  0.003389  -116.171973       0.983156   -10.144510       0.008033    75.859387       0.018050    24.908154    
               
0.04000000000       0.025178    41.301028       0.010279    70.715244       0.987835   -13.718159       0.003663  -114.727496    
                  0.010294    71.479902       0.021896    22.645875       0.003685  -116.603020       0.985321   -13.598938    
                  0.982829   -13.688834       0.004024  -116.247501       0.025299    45.321666       0.010473    73.276003    
                  0.004077  -110.264405       0.983051   -13.476344       0.010410    74.150236       0.020205    23.951183    
               
0.05000000000       0.032713    16.836509       0.012797    68.052933       0.985149   -17.044128       0.004502  -117.940830    
                  0.012649    68.074359       0.024557    24.982380       0.004408  -119.624633       0.983863   -16.991329    
                  0.982941   -17.036233       0.004078  -108.490991       0.031221    20.460940       0.012992    70.338633    
                  0.003557  -117.082694       0.984349   -16.844325       0.013050    72.679648       0.022913    26.939765    
               
0.06000000000       0.024716     7.766496       0.015198    64.587819       0.983268   -20.409276       0.005233  -120.661299    
                  0.015344    65.177543       0.027897    21.710804       0.005362  -120.580309       0.983175   -20.311787    
                  0.980249   -20.376274       0.004527  -115.838840       0.021944    13.887017       0.015242    67.416539    
                  0.004797  -126.920690       0.982688   -20.236109       0.015297    68.446489       0.025536    23.685120    
               
0.07000000000       0.027136    31.134217       0.017530    60.825927       0.983682   -23.726399       0.006125  -121.548912    
                  0.017522    61.736631       0.029821    18.022032       0.006182  -123.092355       0.981661   -23.669084    
                  0.979316   -23.735590       0.005471  -126.451955       0.025328    40.179710       0.017590    65.976012    
                  0.006501  -130.385518       0.981141   -23.642004       0.017549    65.190256       0.027219    22.727844    
               
0.08000000000       0.039849    21.351473       0.019941    57.587150       0.980946   -27.114585       0.006985  -126.161866    
                  0.019816    57.731476       0.031800    16.738061       0.006914  -129.086415       0.980754   -27.013238    
                  0.976965   -27.083110       0.006765  -132.677669       0.037496    28.371233       0.019866    62.482237    
                  0.007349  -128.144456       0.979857   -26.961968       0.019950    62.488772       0.028930    22.392898    
               
0.09000000000       0.038023     5.617905       0.022201    54.090385       0.980350   -30.427878       0.007624  -130.494142    
                  0.022253    53.986665       0.034250    14.417231       0.007569  -129.293475       0.979132   -30.326586    
                  0.976904   -30.406201       0.007881  -133.044491       0.033451    12.987259       0.022257    59.756739    
                  0.007765  -127.012740       0.979172   -30.338346       0.022291    59.921790       0.031202    21.529811    
               
0.10000000000       0.032690    12.711070       0.024444    50.539786       0.979564   -33.684656       0.008360  -133.881064    
                  0.024541    50.454971       0.036606    10.232833       0.008570  -132.455201       0.978129   -33.606440    
                  0.976864   -33.684512       0.008900  -132.800576       0.027646    27.081965       0.024298    56.833212    
                  0.008273  -129.524680       0.978358   -33.648876       0.024414    56.868121       0.032494    19.384597    
               
0.11000000000       0.043731    17.115444       0.026592    46.998757       0.978634   -37.068934       0.009115  -136.667686    
                  0.026678    46.818431       0.037602     6.954991       0.009304  -137.085943       0.977628   -36.914002    
                  0.976208   -37.080812       0.009413  -134.218900       0.038301    33.020694       0.026792    53.691245    
                  0.008774  -137.135430       0.976831   -36.938680       0.026841    53.853223       0.032687    18.339162    
               
0.12000000000       0.049669     2.200110       0.028618    43.418253       0.977877   -40.327001       0.009977  -140.038157    
                  0.028661    43.347051       0.039906     4.416970       0.009758  -139.999034       0.976835   -40.240508    
                  0.975080   -40.337680       0.010084  -137.062950       0.040778    16.121579       0.028847    51.116512    
                  0.009705  -142.555854       0.975967   -40.235808       0.028769    51.137647       0.033745    18.657649    
               
0.13000000000       0.041944    -5.407679       0.030802    39.837628       0.976586   -43.706116       0.010742  -142.767198    
                  0.030776    40.030849       0.042688     2.233697       0.010726  -141.780186       0.975698   -43.525596    
                  0.973923   -43.690355       0.010363  -141.835301       0.031695    12.102308       0.030964    48.097978    
                  0.010944  -143.087807       0.974861   -43.552699       0.030875    48.456691       0.035715    18.401313    
               
0.14000000000       0.043625     4.805528       0.032751    36.240851       0.976452   -46.999101       0.011452  -146.715096    
                  0.032757    36.255808       0.045697    -0.393072       0.011701  -145.779034       0.974916   -46.809114    
                  0.973396   -47.031370       0.011172  -146.346831       0.035900    26.980928       0.032918    45.238097    
                  0.011975  -145.728805       0.973998   -46.869788       0.032932    45.281217       0.037698    16.075870    
               
0.15000000000       0.055901    -0.954721       0.034672    32.594901       0.974685   -50.325332       0.012162  -150.057396    
                  0.034551    32.517452       0.047210    -2.998422       0.012264  -150.726210       0.974397   -50.110890    
                  0.971312   -50.359434       0.012098  -150.950349       0.045992    18.397553       0.034838    42.192896    
                  0.012204  -150.087576       0.972965   -50.190854       0.034834    42.093120       0.038721    11.925209    
               
0.16000000000       0.055248   -13.230415       0.036489    29.053680       0.974349   -53.637106       0.012828  -153.392231    
                  0.036431    28.959588       0.048034    -4.893296       0.012713  -152.612255       0.973452   -53.412151    
                  0.971047   -53.663682       0.013096  -154.203711       0.041935     6.385490       0.036630    39.340017    
                  0.012355  -152.228497       0.972479   -53.502328       0.036608    39.245961       0.039586     8.865188    
               
0.17000000000       0.048188   -10.844886       0.038154    25.380085       0.972743   -56.889524       0.013388  -156.729815    
                  0.038160    25.487113       0.049879    -7.607103       0.013726  -155.908768       0.972439   -56.690641    
                  0.970603   -56.931899       0.013747  -156.519182       0.037175    13.908421       0.038379    36.454189    
                  0.013172  -156.057075       0.972062   -56.811598       0.038469    36.446834       0.041999     5.861925    
               
0.18000000000       0.056782    -6.015612       0.039807    21.880851       0.972596   -60.244372       0.014027  -159.566782    
                  0.039758    21.756434       0.051655   -12.434029       0.014303  -160.331971       0.972252   -60.017004    
                  0.969328   -60.302357       0.014404  -158.717150       0.048048    16.710428       0.040107    33.536677    
                  0.014242  -161.459057       0.970630   -60.111011       0.040100    33.369570       0.043081     3.277440    
               
0.19000000000       0.064181   -17.147342       0.041384    18.092844       0.971500   -63.478365       0.014780  -162.664066    
                  0.041237    18.298608       0.052426   -16.546774       0.014640  -163.155311       0.971112   -63.308006    
                  0.967702   -63.521792       0.014926  -161.715246       0.051257     4.733742       0.041719    30.711807    
                  0.014778  -163.639560       0.969820   -63.384004       0.041679    30.663348       0.042796     3.167342    
               
0.20000000000       0.058224   -25.511473       0.042755    14.457460       0.970383   -66.838610       0.015401  -165.973677    
                  0.042729    14.617933       0.054142   -20.831332       0.015408  -164.710252       0.969951   -66.604094    
                  0.967593   -66.867609       0.015293  -164.973098       0.042427     3.025003       0.043335    27.913517    
                  0.015450  -164.861716       0.969300   -66.678000       0.043312    27.966000       0.043429     2.738898    
               
0.21000000000       0.057326   -20.520743       0.044270    11.049686       0.970698   -70.153441       0.016098  -169.070324    
                  0.044329    11.009382       0.056109   -25.089566       0.016491  -168.904731       0.969656   -69.922152    
                  0.967645   -70.174129       0.015975  -168.790702       0.045182    14.083102       0.044736    25.028814    
                  0.016378  -167.604624       0.968452   -70.008078       0.044960    25.004796       0.043624     1.251491    
               
0.22000000000       0.067954   -24.314183       0.045535     7.211123       0.968875   -73.449035       0.016912  -172.564268    
                  0.045583     7.131741       0.058205   -28.278172       0.016986  -173.109731       0.968168   -73.216515    
                  0.965189   -73.535568       0.016964  -172.937188       0.053397     6.198350       0.046107    22.117660    
                  0.016733  -172.882620       0.967588   -73.357509       0.046219    21.971505       0.044524     0.789557    
               
0.23000000000       0.067960   -35.296943       0.046599     3.683550       0.968083   -76.787145       0.017423  -175.892616    
                  0.046591     3.719352       0.060872   -30.727909       0.017317  -175.187727       0.967163   -76.487407    
                  0.965404   -76.812296       0.017618  -176.131323       0.047717    -3.004610       0.047436    19.112390    
                  0.017042  -175.941498       0.966077   -76.601592       0.047354    19.275375       0.046391     0.379654    
               
0.24000000000       0.061547   -35.573959       0.047800     0.190737       0.967114   -80.015713       0.018089  -178.699620    
                  0.047754     0.268244       0.063154   -33.142654       0.018386  -177.617047       0.966414   -79.767761    
                  0.964050   -80.051745       0.018456  -178.798194       0.043794     5.764725       0.048515    16.281774    
                  0.018192  -178.751622       0.965180   -79.864740       0.048669    16.506228       0.047892    -0.385570    
               
0.25000000000       0.069176   -32.134447       0.048879    -3.612237       0.967193   -83.347569       0.018744   177.855912    
                  0.048941    -3.719999       0.065152   -35.752830       0.019090   177.805358       0.965782   -83.074306    
                  0.963946   -83.403722       0.019144   178.585761       0.054293     6.600089       0.049551    13.412199    
                  0.019184   177.207231       0.964445   -83.124408       0.049694    13.392207       0.049383    -2.954246    
               
0.26000000000       0.076936   -40.500200       0.049711    -7.311396       0.965912   -86.621641       0.019349   174.683391    
                  0.049563    -7.369567       0.066067   -39.309624       0.019312   174.593512       0.965126   -86.351621    
                  0.961742   -86.660593       0.019525   175.477488       0.056476    -5.059058       0.050484    10.704244    
                  0.019277   174.482369       0.963364   -86.423826       0.050533    10.562288       0.049486    -7.010564    
               
0.27000000000       0.071070   -46.801038       0.050547   -10.982645       0.965362   -89.921236       0.019989   171.623481    
                  0.050448   -10.857962       0.066060   -42.091790       0.020106   172.643157       0.964916   -89.613131    
                  0.961282   -89.940153       0.020008   172.271679       0.049294    -5.180638       0.051490     8.010076    
                  0.019707   172.885803       0.963296   -89.710863       0.051501     8.081033       0.049012    -8.017008    
               
0.28000000000       0.070592   -43.301387       0.051281   -14.724575       0.965591   -93.163302       0.020633   168.303807    
                  0.051316   -14.659062       0.068144   -44.683258       0.021131   168.553899       0.964494   -92.936409    
                  0.961514   -93.273354       0.020683   168.272126       0.055279     2.923414       0.052216     5.185237    
                  0.020707   168.698056       0.962883   -93.025249       0.052424     5.149570       0.051406    -8.560712    
               
0.29000000000       0.080993   -47.432239       0.051726   -18.377888       0.964088   -96.493932       0.021168   165.038263    
                  0.051715   -18.548913       0.070299   -50.006343       0.021281   164.335243       0.964102   -96.232450    
                  0.960301   -96.599407       0.021260   164.637786       0.062530    -3.873094       0.052921     2.433877    
                  0.021044   163.958788       0.961883   -96.325458       0.052847     2.338886       0.052004   -10.815956    
               
0.30000000000       0.080459   -57.854524       0.052205   -22.100197       0.964177   -99.802945       0.021791   162.222728    
                  0.052110   -22.064257       0.070147   -54.508818       0.021690   162.602340       0.962849   -99.544274    
                  0.959897   -99.839134       0.021996   161.942413       0.054842    -9.833630       0.053416    -0.283599    
                  0.021587   161.792748       0.961199   -99.576338       0.053383    -0.231109       0.051901   -10.852854    
               
0.31000000000       0.072193   -59.621904       0.052595   -25.727046       0.963094  -103.082019       0.022486   159.405450    
                  0.052633   -25.648952       0.071285   -56.936161       0.022870   159.830975       0.961813  -102.795348    
                  0.959356  -103.107491       0.022860   159.216101       0.051439    -1.932417       0.054011    -3.003573    
                  0.022668   159.944671       0.960521  -102.854819       0.054157    -2.903519       0.053369   -10.680274    
               
0.32000000000       0.076914   -57.563704       0.052901   -29.588176       0.962828  -106.402255       0.023206   155.955862    
                  0.053052   -29.592397       0.073643   -59.945516       0.023615   155.380229       0.961586  -106.052755    
                  0.958100  -106.465184       0.023463   155.982586       0.060415    -2.936541       0.054477    -5.794714    
                  0.023524   156.089722       0.959878  -106.121402       0.054645    -5.869346       0.054774   -11.506280    
               
0.33000000000       0.083479   -65.725480       0.053033   -33.338647       0.961244  -109.707897       0.023765   152.906740    
                  0.052921   -33.428843       0.074676   -63.924016       0.023759   152.406728       0.961142  -109.354175    
                  0.956822  -109.726491       0.024019   153.233543       0.059628   -11.919439       0.054775    -8.499799    
                  0.023537   152.537785       0.959648  -109.423979       0.054688    -8.491668       0.055464   -12.382220    
               
0.34000000000       0.077241   -72.683182       0.053149   -37.019447       0.959884  -112.962961       0.024314   149.991051    
                  0.053031   -36.918408       0.074382   -67.929595       0.024486   150.504671       0.960309  -112.623919    
                  0.957017  -112.993778       0.024544   150.112317       0.052607    -9.826466       0.054896   -11.158137    
                  0.024021   150.576417       0.959502  -112.766170       0.054860   -10.990672       0.055043   -14.730624    
               
0.35000000000       0.075458   -70.687034       0.053142   -40.828672       0.960812  -116.212272       0.025081   146.884939    
                  0.053223   -40.793490       0.073942   -70.937903       0.025630   146.978377       0.959740  -115.902685    
                  0.957077  -116.323046       0.025157   146.789040       0.059036    -5.439057       0.055010   -13.747199    
                  0.025173   147.045220       0.958073  -116.043670       0.055211   -13.749349       0.054238   -16.202355    
               
0.36000000000       0.084799   -74.047894       0.052887   -44.713597       0.959603  -119.542728       0.025575   143.612026    
