! S11 = S11
! S12 = S12
! S13 = S13
! S14 = S14
! S21 = S21
! S22 = S22
! S23 = S23
! S24 = S24
! S31 = S31
! S32 = S32
! S33 = S33
! S34 = S34
! S41 = S41
! S42 = S42
! S43 = S43
! S44 = S44
!
! FILE: C:\Documents and Settings\cilab\Desktop\Test\JZ_switch\27_C27C28.s4p
!$DUT_CFG_DESC: Default 4 Port Configuration
!$NUMBER_PORTS: 4
!$DIFF_PORT_MAP: 1|2P|2|2P|0|UC|0|UC
!$PORT_MAP: 1|1|<<<<<<|2|2|>>>>>>|3|3|<<<<<<|4|4|>>>>>>
!
# GHz S MA R 50.00
!
! FREQ                  S11                         S12                         S13                         S14
!                       S21                         S22                         S23                         S24
!                       S31                         S32                         S33                         S34
!                       S41                         S42                         S43                         S44
!                       
!                  MAG       ANG               MAG       ANG               MAG       ANG               MAG       ANG               
0.01000000000       0.023767    26.670128       0.003310    70.943703       0.983399    -3.582450       0.001226  -124.518384    ! dummy
                  0.002975    82.324559       0.016201    13.756886       0.000778   -98.227899       0.988000    -3.629680      
                  0.982394    -3.564174       0.000347   -29.229936       0.023103    25.444094       0.002613    89.816770         ! dummy  ! dummy
                  0.000773   112.513996       0.985295    -3.617860       0.001985    53.172066       0.012190     6.648507    
               
0.02000000000       0.021078    -3.729127       0.005169    78.973226       0.988634    -6.776649       0.002048  -109.977141    
                  0.005030    76.723972       0.016961    19.652461       0.001949  -115.018550       0.987150    -6.864183    
                  0.984196    -6.797195       0.001406  -137.238629       0.021199     0.848404       0.004858    78.288925    
                  0.001912  -135.141347       0.984451    -6.749826       0.005124    76.800704       0.015169    19.872908    
               
0.03000000000       0.011260    18.754602       0.007759    74.184919       0.988596   -10.183524       0.002752  -113.137759    
                  0.007829    74.939403       0.019585    22.500626       0.002808  -112.803516       0.986253   -10.245266    
                  0.983212   -10.157826       0.003057  -122.512426       0.011210    24.427472       0.007833    75.959813    
                  0.003389  -116.171973       0.983156   -10.144510       0.008033    75.859387       0.018050    24.908154    
               
0.04000000000       0.025178    41.301028       0.010279    70.715244       0.987835   -13.718159       0.003663  -114.727496    
                  0.010294    71.479902       0.021896    22.645875       0.003685  -116.603020       0.985321   -13.598938    
                  0.982829   -13.688834       0.004024  -116.247501       0.025299    45.321666       0.010473    73.276003    
                  0.004077  -110.264405       0.983051   -13.476344       0.010410    74.150236       0.020205    23.951183    
               
0.05000000000       0.032713    16.836509       0.012797    68.052933       0.985149   -17.044128       0.004502  -117.940830    
                  0.012649    68.074359       0.024557    24.982380       0.004408  -119.624633       0.983863   -16.991329    
                  0.982941   -17.036233       0.004078  -108.490991       0.031221    20.460940       0.012992    70.338633    
                  0.003557  -117.082694       0.984349   -16.844325       0.013050    72.679648       0.022913    26.939765    
               		  
