! S11 = S11
! S12 = S12
! S13 = S13
! S14 = S14
! S21 = S21
! S22 = S22
! S23 = S23
! S24 = S24
! S31 = S31
! S32 = S32
! S33 = S33
! S34 = S34
! S41 = S41
! S42 = S42
! S43 = S43
! S44 = S44
!
! FILE: C:\Documents and Settings\cilab\Desktop\Test\310058-000-sample3\sample3_eib27r0_freq_se_se.s4p
!$DUT_CFG_DESC: Default 4 Port Configuration
!$NUMBER_PORTS: 4
!$DIFF_PORT_MAP: 1|2P|2|2P|0|UC|0|UC
!$PORT_MAP: 1|1|<<<<<<|2|2|>>>>>>|3|3|<<<<<<|4|4|>>>>>>
!
# MHz S MA R 50.00
!
! FREQ                  S11                         S12                         S13                         S14
!                       S21                         S22                         S23                         S24
!                       S31                         S32                         S33                         S34
!                       S41                         S42                         S43                         S44
!                       
!                  MAG       ANG               MAG       ANG               MAG       ANG               MAG       ANG               
10.00000000       0.016982    15.900873       0.984853    -3.842202       0.001931    63.477941       0.001040  -157.999978    
                  0.985015    -3.838385       0.016926    13.780088       0.000486  -165.025829       0.002439    58.791002    
                  0.003689    79.658985       0.000893    41.368239       0.017135     8.943685       0.984028    -3.837395    
                  0.000972  -125.269027       0.002934    75.090976       0.985462    -3.815548       0.015457    17.878523    
               
20.00000000       0.020608    20.164709       0.981930    -7.397079       0.004451    75.956786       0.001410  -120.099551    
                  0.981959    -7.416893       0.020342    19.497134       0.001537  -119.319485       0.004587    74.808027    
                  0.005065    86.270365       0.001324  -157.761688       0.019992    19.473635       0.983660    -7.427336    
                  0.001837  -155.369553       0.005160    85.207996       0.983962    -7.389158       0.019469    17.080507    
               
30.00000000       0.023246    23.561819       0.980169   -10.982375       0.006628    73.064566       0.002153  -118.486887    
                  0.980252   -10.996866       0.022649    24.006351       0.002102  -118.741455       0.006550    73.564683    
                  0.006467    78.233554       0.002360  -131.345775       0.021963    23.783200       0.981953   -10.987912    
                  0.002518  -126.498336       0.006412    77.305734       0.982527   -10.963561       0.022035    21.998119    
               
40.00000000       0.026544    25.023431       0.978812   -14.549483       0.008728    70.666830       0.002758  -118.750092    
                  0.978892   -14.556125       0.026279    25.655621       0.002831  -118.580197       0.008732    71.250284    
                  0.008473    71.329353       0.003206  -121.989969       0.025422    24.683716       0.980325   -14.553784    
                  0.003083  -114.881117       0.008314    71.554256       0.980454   -14.528250       0.025553    23.177658    
               
50.00000000       0.029493    25.361913       0.976515   -18.043492       0.010801    68.294955       0.003486  -121.318322    
                  0.977083   -18.062849       0.029034    25.261791       0.003411  -121.120561       0.010845    68.031193    
                  0.011643    65.207666       0.003093  -105.013411       0.027749    23.177100       0.977414   -18.037931    
                  0.002412  -115.908944       0.011546    65.249350       0.978332   -18.039932       0.027693    22.412727    
               
60.00000000       0.032477    25.069426       0.975399   -21.597675       0.012847    64.204241       0.004135  -123.602554    
                  0.975740   -21.593844       0.031841    24.001546       0.004112  -124.190086       0.012908    64.611179    
                  0.013753    66.142137       0.003273  -121.628422       0.029973    22.726139       0.976276   -21.594805    
                  0.003174  -137.161027       0.013737    65.039237       0.976653   -21.541510       0.030854    21.821903    
               
70.00000000       0.035146    24.209820       0.974171   -25.116503       0.015156    61.603826       0.004613  -129.659158    
                  0.973955   -25.123747       0.034868    22.421488       0.004674  -128.582741       0.014708    61.956073    
                  0.015219    63.581622       0.003948  -131.521623       0.032907    21.527118       0.974891   -25.105001    
                  0.005080  -134.332628       0.015190    64.272784       0.975260   -25.061501       0.033238    21.232502    
               
80.00000000       0.038257    22.849358       0.972911   -28.642872       0.016932    58.077216       0.005167  -133.404569    
                  0.973150   -28.624073       0.038231    21.231922       0.005298  -131.548188       0.016894    58.779033    
                  0.016351    60.068570       0.005112  -137.673064       0.035558    21.107226       0.973750   -28.595172    
                  0.005742  -130.044675       0.016441    60.182876       0.974047   -28.577914       0.036838    19.650496    
               
90.00000000       0.040979    21.194046       0.971545   -32.141615       0.018719    54.645048       0.005845  -135.339295    
                  0.971464   -32.151894       0.040798    19.731087       0.005766  -134.445102       0.018716    55.328452    
                  0.018048    55.085803       0.006169  -138.478476       0.037798    19.853421       0.972356   -32.132245    
                  0.006094  -130.977943       0.018177    55.003260       0.972912   -32.104083       0.039187    17.454059    
               
100.00000000       0.043715    18.836794       0.970466   -35.652719       0.020589    51.288674       0.006281  -138.179355    
                  0.970584   -35.662496       0.043004    18.283077       0.006389  -137.424279       0.020541    51.949846    
                  0.020153    50.378334       0.006784  -137.082634       0.039389    18.128254       0.971163   -35.625574    
                  0.005988  -134.843890       0.020274    50.752897       0.971816   -35.610391       0.040830    14.792923    
               
110.00000000       0.045747    16.849269       0.968981   -39.161219       0.022348    47.708043       0.006860  -142.181842    
                  0.968979   -39.144938       0.045548    16.002148       0.006924  -140.449907       0.022372    48.726251    
                  0.022484    46.571563       0.007148  -138.331469       0.040667    15.963177       0.969876   -39.128495    
                  0.006280  -140.902065       0.022444    47.448925       0.970403   -39.110409       0.042095    11.136138    
               
120.00000000       0.047602    15.156428       0.967912   -42.638033       0.024018    44.401951       0.007400  -145.251375    
                  0.967997   -42.655804       0.047520    12.979980       0.007463  -144.860736       0.024063    45.210889    
                  0.024374    44.029847       0.007214  -142.191803       0.041820    13.587460       0.968803   -42.631031    
                  0.007150  -148.051604       0.024457    45.227498       0.969242   -42.611223       0.043772     7.753888    
               
130.00000000       0.049878    12.660043       0.966903   -46.150915       0.025744    41.043042       0.007909  -148.207621    
                  0.967210   -46.153717       0.049369    11.335845       0.007955  -147.894490       0.025732    41.661892    
                  0.026025    41.418876       0.007516  -146.829213       0.044276    10.469670       0.968035   -46.133109    
                  0.008153  -150.453130       0.025937    42.382811       0.968663   -46.118684       0.045929     5.543088    
               
140.00000000       0.052633     9.244579       0.965890   -49.639277       0.027292    37.508334       0.008475  -152.535133    
                  0.965808   -49.647102       0.051757     9.925623       0.008578  -151.357425       0.027297    38.559395    
                  0.027278    38.182753       0.008203  -152.178140       0.047125     7.898017       0.966699   -49.594730    
                  0.008711  -151.848057       0.027118    38.957058       0.967362   -49.622006       0.048184     3.886594    
               
150.00000000       0.055977     5.791802       0.964468   -53.130472       0.028790    33.988207       0.008979  -156.456115    
                  0.964475   -53.119707       0.054110     8.495547       0.008926  -155.145752       0.028858    34.902339    
                  0.028443    34.505305       0.008923  -157.204621       0.049369     5.382647       0.965704   -53.110103    
                  0.009049  -153.553362       0.028464    35.260356       0.965844   -53.100138       0.050574     1.822202    
               
160.00000000       0.059064     3.144313       0.963371   -56.613672       0.030221    30.554086       0.009442  -159.665672    
                  0.963451   -56.599507       0.056609     6.250916       0.009472  -158.512658       0.030291    31.691709    
                  0.029850    30.279252       0.009645  -159.920519       0.050979     3.239325       0.964641   -56.592351    
                  0.009207  -158.386451       0.030027    31.160509       0.965178   -56.569514       0.052725    -1.151715    
               
170.00000000       0.061209     0.753175       0.962523   -60.093584       0.031533    27.280118       0.009850  -163.313075    
                  0.962448   -60.083042       0.058990     3.648270       0.009936  -162.229116       0.031492    28.238993    
                  0.031414    26.582017       0.010185  -162.907941       0.053002     1.059316       0.963688   -60.074840    
                  0.009611  -163.700739       0.031533    27.706409       0.964020   -60.063451       0.054864    -4.093449    
               
180.00000000       0.062849    -1.449131       0.961286   -63.560398       0.032783    23.865506       0.010295  -166.720960    
                  0.961260   -63.576045       0.061635     0.689856       0.010351  -165.916716       0.032807    25.012408    
                  0.032828    23.564423       0.010541  -164.860688       0.055564    -0.666825       0.962352   -63.539767    
                  0.010277  -168.422581       0.033064    24.700018       0.963028   -63.544560       0.057756    -6.043554    
               
190.00000000       0.064704    -4.179835       0.960816   -67.034062       0.033988    20.507100       0.010772  -170.169493    
                  0.960490   -67.071190       0.063316    -2.333125       0.010847  -169.238047       0.034059    21.589783    
                  0.034117    20.404380       0.010815  -167.678259       0.058155    -2.607219       0.961529   -67.020085    
                  0.011005  -170.878553       0.034185    21.748975       0.961719   -67.014111       0.059875    -8.761553    
               
200.00000000       0.066611    -7.161434       0.959650   -70.511784       0.035104    17.069424       0.011101  -173.472065    
                  0.959338   -70.530247       0.064830    -5.053649       0.011297  -172.215353       0.035025    18.214810    
                  0.035018    17.333835       0.011038  -171.726844       0.059746    -4.393673       0.960492   -70.513609    
                  0.011331  -173.181954       0.034982    18.686135       0.960855   -70.483022       0.061734   -12.470899    
               
210.00000000       0.068338    -9.909190       0.958296   -73.988943       0.036148    13.568562       0.011545  -176.773199    
                  0.958439   -73.983206       0.066596    -7.642840       0.011782  -175.850471       0.036121    14.901624    
                  0.035919    13.843782       0.011506  -176.106874       0.060238    -6.056513       0.959166   -73.978947    
                  0.011443  -175.910703       0.035880    14.990421       0.960296   -73.990657       0.062573   -16.277536    
               
220.00000000       0.069302   -12.243380       0.957696   -77.453353       0.037025    10.084469       0.011934   179.761638    
                  0.957608   -77.462717       0.068064   -10.467121       0.012215  -179.093034       0.036954    11.491627    
                  0.036702    10.040420       0.012190   179.516956       0.060681    -9.014083       0.958496   -77.449572    
                  0.011663  -179.613905       0.036741    11.179293       0.958864   -77.448541       0.063671   -19.242397    
               
230.00000000       0.070398   -14.860470       0.956347   -80.929257       0.037845     6.661105       0.012428   176.612493    
                  0.956548   -80.915566       0.068570   -12.868575       0.012654   177.230899       0.037856     8.189505    
                  0.037551     6.388826       0.012848   176.881470       0.061601   -12.474293       0.957850   -80.942494    
                  0.012272   176.289690       0.037698     7.771197       0.958003   -80.918382       0.064733   -21.509657    
               
240.00000000       0.071172   -18.046941       0.955830   -84.399407       0.038608     3.311775       0.012849   173.298178    
                  0.955570   -84.401074       0.069119   -15.325167       0.013070   174.412775       0.038517     4.717525    
                  0.038522     2.975218       0.013290   174.523646       0.062720   -15.842229       0.956165   -84.411727    
                  0.012826   172.478508       0.038711     4.520786       0.957504   -84.385579       0.065896   -23.692962    
               
250.00000000       0.072547   -21.537025       0.954952   -87.868733       0.039183    -0.057768       0.013261   170.083873    
                  0.954633   -87.883713       0.070739   -18.103070       0.013499   171.053020       0.039108     1.474719    
                  0.039230    -0.190809       0.013635   171.672264       0.063730   -18.536487       0.955660   -87.873237    
                  0.013412   169.931719       0.039296     1.434516       0.956698   -87.877902       0.066976   -26.360718    
               
260.00000000       0.074394   -24.465474       0.953680   -91.342416       0.039670    -3.489010       0.013589   166.386853    
                  0.953662   -91.344704       0.073281   -21.001095       0.013927   167.808688       0.039607    -1.920376    
                  0.039609    -3.289664       0.013919   168.246196       0.064696   -20.580569       0.954898   -91.341024    
                  0.013687   167.228141       0.039619    -1.678077       0.955618   -91.338305       0.069011   -29.660922    
               
270.00000000       0.076617   -27.283351       0.952392   -94.796299       0.040151    -6.870622       0.014042   163.610268    
                  0.952409   -94.802983       0.075756   -23.187400       0.014411   164.523166       0.040062    -5.344752    
                  0.039906    -6.624487       0.014163   164.911247       0.066321   -23.077843       0.954082   -94.824462    
                  0.014018   164.199668       0.039825    -5.114437       0.954452   -94.791320       0.070591   -32.774524    
               
280.00000000       0.078610   -30.294756       0.951837   -98.246386       0.040394   -10.199679       0.014442   160.062655    
                  0.951586   -98.249927       0.077373   -25.640125       0.014836   160.903935       0.040376    -8.528595    
                  0.040094   -10.199337       0.014622   160.827708       0.068414   -25.727851       0.953003   -98.280722    
                  0.014277   160.164019       0.040064    -8.720347       0.954035   -98.251811       0.072157   -35.505488    
               
290.00000000       0.080392   -33.194339       0.951168  -101.711970       0.040675   -13.638344       0.014789   156.679135    
                  0.951098  -101.716416       0.078039   -28.640907       0.015108   157.416165       0.040629   -11.903162    
                  0.040339   -13.774056       0.015027   157.070459       0.070325   -28.073836       0.952470  -101.731081    
                  0.014697   156.114592       0.040400   -12.262944       0.953165  -101.736054       0.073772   -38.325677    
               
300.00000000       0.081723   -36.161055       0.950305  -105.165186       0.040736   -17.082397       0.015149   153.807835    
                  0.950188  -105.178729       0.078184   -31.966121       0.015478   154.536031       0.040630   -15.231113    
                  0.040632   -17.330589       0.015578   153.919568       0.071234   -29.367540       0.951632  -105.216843    
                  0.015242   153.257187       0.040676   -15.375526       0.951940  -105.203793       0.074564   -41.882063    
               
310.00000000       0.082744   -38.347303       0.949624  -108.642880       0.040795   -20.430784       0.015634   150.824108    
                  0.949192  -108.635941       0.079084   -34.617575       0.015963   151.561814       0.040711   -18.558218    
                  0.040713   -20.717084       0.016121   151.141112       0.071666   -31.266531       0.950592  -108.676473    
                  0.015739   150.694993       0.040818   -18.517883       0.950847  -108.637698       0.075442   -45.006236    
               
320.00000000       0.083371   -40.845504       0.948658  -112.112403       0.040693   -23.903122       0.016027   147.463043    
                  0.948819  -112.095459       0.079845   -36.902265       0.016406   147.737815       0.040543   -21.769812    
                  0.040630   -23.947587       0.016519   148.079929       0.072182   -34.221950       0.950310  -112.122005    
                  0.016114   148.019732       0.040565   -21.719544       0.950632  -112.098355       0.075939   -47.325598    
               
330.00000000       0.082972   -43.431647       0.948027  -115.559079       0.040411   -27.286566       0.016407   144.519755    
                  0.947746  -115.561057       0.079925   -39.233904       0.016789   144.618576       0.040356   -25.161329    
                  0.040239   -27.244721       0.016679   145.369771       0.072401   -37.447300       0.949254  -115.595324    
                  0.016346   145.114701       0.040205   -24.994715       0.949495  -115.586055       0.076607   -49.554019    
               
340.00000000       0.083273   -45.731306       0.947337  -119.048304       0.040041   -30.671785       0.016820   141.461666    
                  0.947205  -119.022092       0.080061   -42.304022       0.017114   141.944554       0.040007   -28.449816    
                  0.039850   -30.530748       0.017003   142.019878       0.072916   -40.071056       0.948546  -119.062284    
                  0.016628   141.437100       0.039776   -28.530748       0.948775  -119.049686       0.077001   -52.207194    
               
350.00000000       0.083794   -48.389087       0.946111  -122.477975       0.039744   -34.003659       0.017188   138.236744    
                  0.946239  -122.467766       0.080844   -45.658422       0.017577   138.681563       0.039581   -31.804188    
                  0.039385   -34.099762       0.017404   138.678928       0.073453   -42.600541       0.947882  -122.513476    
                  0.017096   137.852531       0.039376   -32.032867       0.947985  -122.486348       0.077504   -55.337573    
               
360.00000000       0.084215   -50.963775       0.945364  -125.937968       0.039162   -37.368912       0.017496   135.118199    
